;$FILEVERSION=1.1
;$STARTTIME=43889.9561574074
;
;   C:\Users\ngb\pcan-logger-script\PCAN_USBBUS1_1.trc
;
;   Start time: 28/02/2020 22:56:52.000.0
;   PCAN-Channel: PCAN_USBBUS1
;   Driver version: PCAN_USB 3.8.2.10146 - (KMDF, WLH_amd64)
;   Generated by PCAN-Basic API, version 4.4.0.288
;
;   Message Number
;   |         Time Offset (ms)
;   |         |        Type
;   |         |        |        ID (hex)
;   |         |        |        |     Data Length Code
;   |         |        |        |     |   Data Bytes (hex) ...
;   |         |        |        |     |   |
;---+--   ----+----  --+--  ----+---  +  -+ -- -- -- -- -- -- --
     1)         0.0  Rx         0506  8  08 5A 40 01 0E 00 00 00 
     2)         2.9  Rx         0521  6  00 01 00 00 02 E0 
     3)        23.4  Rx         0521  6  00 02 00 00 02 BF 
     4)        23.6  Rx         0522  6  01 06 00 01 BE 99 
     5)        23.9  Rx         0523  6  02 06 00 00 FC B9 
     6)        24.1  Rx         0524  6  03 06 FF FF FF F8 
     7)        43.1  Rx         0521  6  00 03 00 00 02 CF 
     8)        63.1  Rx         0521  6  00 04 00 00 02 D6 
     9)        83.7  Rx         0521  6  00 05 00 00 02 CF 
    10)        83.9  Rx         0522  6  01 07 00 01 BE 8B 
    11)        84.1  Rx         0523  6  02 07 00 00 FC 73 
    12)        84.2  Rx         0729  1  05 
    13)        84.4  Rx         0524  6  03 07 FF FF FF F6 
    14)       103.3  Rx         0521  6  00 06 00 00 02 CD 
    15)       120.5  Rx         0506  8  08 5A 40 01 0E 00 00 00 
    16)       123.4  Rx         0521  6  00 07 00 00 02 E6 
    17)       144.0  Rx         0521  6  00 08 00 00 06 60 
    18)       144.2  Rx         0522  6  01 08 00 01 BE 81 
    19)       144.4  Rx         0523  6  02 08 00 00 FD 1B 
    20)       144.6  Rx         0524  6  03 08 FF FF FF F8 
    21)       163.5  Rx         0521  6  00 09 00 00 06 AC 
    22)       183.6  Rx         0521  6  00 0A 00 00 06 AD 
    23)       184.5  Rx         0729  1  05 
    24)       204.2  Rx         0521  6  00 0B 00 00 06 57 
    25)       204.4  Rx         0522  6  01 09 00 01 BE 85 
    26)       204.6  Rx         0523  6  02 09 00 01 09 A4 
    27)       204.8  Rx         0524  6  03 09 FF FF FF FA 
    28)       223.9  Rx         0521  6  00 0C 00 00 06 39 
    29)       241.0  Rx         0506  8  08 5A 40 01 0E 00 00 00 
    30)       244.0  Rx         0521  6  00 0D 00 00 06 28 
    31)       264.5  Rx         0521  6  00 0E 00 00 06 0A 
    32)       264.7  Rx         0522  6  01 0A 00 01 BE 85 
    33)       264.9  Rx         0523  6  02 0A 00 01 18 C9 
    34)       265.1  Rx         0524  6  03 0A 00 00 00 00 
    35)       284.1  Rx         0521  6  00 0F 00 00 05 F0 
    36)       285.0  Rx         0729  1  05 
    37)       304.2  Rx         0521  6  00 00 00 00 05 D6 
    38)       324.7  Rx         0521  6  00 01 00 00 05 CF 
    39)       324.9  Rx         0522  6  01 0B 00 01 BE 73 
    40)       325.2  Rx         0523  6  02 0B 00 01 26 7C 
    41)       325.4  Rx         0524  6  03 0B 00 00 00 10 
    42)       344.3  Rx         0521  6  00 02 00 00 05 B6 
    43)       361.6  Rx         0506  8  08 5A 40 01 0E 00 00 00 
    44)       364.5  Rx         0521  6  00 03 00 00 05 93 
    45)       385.0  Rx         0521  6  00 04 00 00 05 7E 
    46)       385.2  Rx         0522  6  01 0C 00 01 BE A1 
    47)       385.4  Rx         0523  6  02 0C 00 01 33 0C 
    48)       385.5  Rx         0729  1  05 
    49)       385.7  Rx         0524  6  03 0C FF FF FF E8 
    50)       404.6  Rx         0521  6  00 05 00 00 05 87 
    51)       424.7  Rx         0521  6  00 06 00 00 05 74 
    52)       445.2  Rx         0521  6  00 07 00 00 05 56 
    53)       445.4  Rx         0522  6  01 0D 00 01 BE 8B 
    54)       445.6  Rx         0523  6  02 0D 00 01 3E 63 
    55)       445.9  Rx         0524  6  03 0D FF FF FF E8 
    56)       464.8  Rx         0521  6  00 08 00 00 05 45 
    57)       482.0  Rx         0506  8  08 5A 40 01 0E 00 00 00 
    58)       484.9  Rx         0521  6  00 09 00 00 05 4C 
    59)       485.9  Rx         0729  1  05 
    60)       505.5  Rx         0521  6  00 0A 00 00 05 24 
    61)       505.8  Rx         0522  6  01 0E 00 01 BE 87 
    62)       506.0  Rx         0523  6  02 0E 00 01 48 D3 
    63)       506.2  Rx         0524  6  03 0E FF FF FF F4 
    64)       525.0  Rx         0521  6  00 0B 00 00 05 13 
    65)       545.2  Rx         0521  6  00 0C 00 00 05 5E 
    66)       565.7  Rx         0521  6  00 0D 00 00 05 0E 
    67)       565.9  Rx         0522  6  01 0F 00 01 BE 7F 
    68)       566.2  Rx         0523  6  02 0F 00 01 52 5C 
    69)       566.4  Rx         0524  6  03 0F FF FF FF FE 
    70)       585.3  Rx         0521  6  00 0E 00 00 04 E4 
    71)       586.2  Rx         0729  1  05 
    72)       602.6  Rx         0506  8  08 5A 40 01 0E 00 00 00 
    73)       605.4  Rx         0521  6  00 0F 00 00 04 D3 
    74)       626.0  Rx         0521  6  00 00 00 00 04 D7 
    75)       626.2  Rx         0522  6  01 00 00 01 BE 87 
    76)       626.4  Rx         0523  6  02 00 00 01 5B 0C 
    77)       626.6  Rx         0524  6  03 00 00 00 00 1C 
    78)       645.5  Rx         0521  6  00 01 00 00 04 BF 
    79)       665.7  Rx         0521  6  00 02 00 00 04 B4 
    80)       686.2  Rx         0521  6  00 03 00 00 04 A0 
    81)       686.4  Rx         0522  6  01 01 00 01 BE 89 
    82)       686.6  Rx         0523  6  02 01 00 01 63 0B 
    83)       686.8  Rx         0729  1  05 
    84)       687.0  Rx         0524  6  03 01 00 00 00 18 
    85)       705.9  Rx         0521  6  00 04 00 00 04 9D 
    86)       723.1  Rx         0506  8  08 5A 40 01 0E 00 00 00 
    87)       725.9  Rx         0521  6  00 05 00 00 04 85 
    88)       746.4  Rx         0521  6  00 06 00 00 04 7D 
    89)       746.7  Rx         0522  6  01 02 00 01 BE 8B 
    90)       746.9  Rx         0523  6  02 02 00 01 6A 37 
    91)       747.1  Rx         0524  6  03 02 FF FF FF E2 
    92)       766.1  Rx         0521  6  00 07 00 00 04 70 
    93)       786.2  Rx         0521  6  00 08 00 00 04 6C 
    94)       787.1  Rx         0729  1  05 
    95)       806.7  Rx         0521  6  00 09 00 00 04 77 
    96)       806.9  Rx         0522  6  01 03 00 01 BE 89 
    97)       807.2  Rx         0523  6  02 03 00 01 70 FE 
    98)       807.4  Rx         0524  6  03 03 00 00 00 02 
    99)       826.4  Rx         0521  6  00 0A 00 00 04 5F 
   100)       843.6  Rx         0506  8  08 5A 40 01 0E 00 00 00 
   101)       846.4  Rx         0521  6  00 0B 00 00 04 5B 
   102)       866.9  Rx         0521  6  00 0C 00 00 04 41 
   103)       867.1  Rx         0522  6  01 04 00 01 BE 89 
   104)       867.4  Rx         0523  6  02 04 00 01 77 23 
   105)       867.6  Rx         0524  6  03 04 00 00 00 00 
   106)       886.6  Rx         0521  6  00 0D 00 00 04 39 
   107)       887.5  Rx         0729  1  05 
   108)       906.6  Rx         0521  6  00 0E 00 00 04 3B 
   109)       927.1  Rx         0521  6  00 0F 00 00 04 3A 
   110)       927.4  Rx         0522  6  01 05 00 01 BE 8D 
   111)       927.6  Rx         0523  6  02 05 00 01 7C B8 
   112)       927.8  Rx         0524  6  03 05 00 00 00 12 
   113)       946.7  Rx         0521  6  00 00 00 00 04 18 
   114)       964.2  Rx         0506  8  08 5A 40 01 0E 00 00 00 
   115)       966.8  Rx         0521  6  00 01 00 00 02 D5 
   116)       987.4  Rx         0521  6  00 02 00 00 02 F1 
   117)       987.6  Rx         0522  6  01 06 00 01 BE 85 
   118)       987.8  Rx         0523  6  02 06 00 01 7A 75 
   119)       988.0  Rx         0729  1  05 
   120)       988.1  Rx         0524  6  03 06 FF FF FF EC 
   121)      1007.0  Rx         0521  6  00 03 00 00 02 E7 
   122)      1027.1  Rx         0521  6  00 04 00 00 02 F2 
   123)      1047.6  Rx         0521  6  00 05 00 00 38 EE 
   124)      1047.9  Rx         0522  6  01 07 00 01 BE 97 
   125)      1048.1  Rx         0523  6  02 07 00 01 84 64 
   126)      1048.3  Rx         0524  6  03 07 00 00 00 0C 
   127)      1067.2  Rx         0521  6  00 06 00 00 03 E4 
   128)      1084.6  Rx         0506  8  08 5A 40 01 0E 00 00 00 
   129)      1087.3  Rx         0521  6  00 07 00 00 03 BC 
   130)      1088.3  Rx         0729  1  05 
   131)      1107.9  Rx         0521  6  00 08 00 00 03 57 
   132)      1108.1  Rx         0522  6  01 08 00 01 BE 7D 
   133)      1108.3  Rx         0523  6  02 08 00 01 BE 82 
   134)      1108.5  Rx         0524  6  03 08 FF FF FF F2 
   135)      1127.6  Rx         0521  6  00 09 00 00 03 22 
   136)      1147.7  Rx         0521  6  00 0A 00 00 03 30 
   137)      1168.2  Rx         0521  6  00 0B 00 00 04 90 
   138)      1168.4  Rx         0522  6  01 09 00 01 BE 8D 
   139)      1168.6  Rx         0523  6  02 09 00 01 BE 70 
   140)      1168.9  Rx         0524  6  03 09 FF FF FF F0 
   141)      1187.8  Rx         0521  6  00 0C 00 00 0B 67 
   142)      1189.1  Rx         0729  1  05 
   143)      1205.7  Rx         0506  8  08 5A 40 01 0E 00 00 00 
   144)      1207.8  Rx         0521  6  00 0D 00 00 0B 55 
   145)      1228.5  Rx         0521  6  00 0E 00 00 0B 45 
   146)      1228.7  Rx         0522  6  01 0A 00 01 BE 81 
   147)      1228.9  Rx         0523  6  02 0A 00 01 BE 7E 
   148)      1229.1  Rx         0524  6  03 0A 00 00 00 10 
   149)      1248.0  Rx         0521  6  00 0F 00 00 0B 46 
   150)      1268.1  Rx         0521  6  00 00 00 00 09 05 
   151)      1288.6  Rx         0521  6  00 01 00 00 03 1D 
   152)      1288.8  Rx         0522  6  01 0B 00 01 BE 79 
   153)      1289.0  Rx         0523  6  02 0B 00 01 BE 8C 
   154)      1289.2  Rx         0729  1  05 
   155)      1289.4  Rx         0524  6  03 0B FF FF FF F0 
   156)      1308.2  Rx         0521  6  00 02 00 00 03 23 
   157)      1325.6  Rx         0506  8  08 65 40 01 0E 00 00 00 
   158)      1328.4  Rx         0521  6  00 03 00 00 03 24 
   159)      1348.9  Rx         0521  6  00 04 00 00 03 20 
   160)      1349.1  Rx         0522  6  01 0C 00 01 BE 6F 
   161)      1349.3  Rx         0523  6  02 0C 00 01 BE 7A 
   162)      1349.5  Rx         0524  6  03 0C FF FF FF F0 
   163)      1368.5  Rx         0521  6  00 05 00 00 03 2C 
   164)      1388.6  Rx         0521  6  00 06 00 00 03 26 
   165)      1389.5  Rx         0729  1  05 
   166)      1409.1  Rx         0521  6  00 07 00 00 03 1D 
   167)      1409.3  Rx         0522  6  01 0D 00 01 BE 89 
   168)      1409.5  Rx         0523  6  02 0D 00 01 BE 86 
   169)      1409.8  Rx         0524  6  03 0D 00 00 00 14 
   170)      1428.8  Rx         0521  6  00 08 00 00 03 34 
   171)      1446.1  Rx         0506  8  08 65 40 01 0E 00 00 00 
   172)      1448.9  Rx         0521  6  00 09 00 00 03 26 
   173)      1469.4  Rx         0521  6  00 0A 00 00 03 39 
   174)      1469.6  Rx         0522  6  01 0E 00 01 BE 7D 
   175)      1469.8  Rx         0523  6  02 0E 00 01 BE 78 
   176)      1470.0  Rx         0524  6  03 0E 00 00 00 16 
   177)      1488.9  Rx         0521  6  00 0B 00 00 03 29 
   178)      1490.0  Rx         0729  1  05 
   179)      1509.0  Rx         0521  6  00 0C 00 00 03 16 
   180)      1529.6  Rx         0521  6  00 0D 00 00 03 25 
   181)      1529.8  Rx         0522  6  01 0F 00 01 BE 99 
   182)      1530.0  Rx         0523  6  02 0F 00 01 BE 92 
   183)      1530.2  Rx         0524  6  03 0F 00 00 00 00 
   184)      1549.2  Rx         0521  6  00 0E 00 00 03 28 
   185)      1566.5  Rx         0506  8  08 65 40 01 0E 00 00 00 
   186)      1569.3  Rx         0521  6  00 0F 00 00 03 0F 
   187)      1589.8  Rx         0521  6  00 00 00 00 03 1C 
   188)      1590.1  Rx         0522  6  01 00 00 01 BE 89 
   189)      1590.3  Rx         0523  6  02 00 00 01 BE 78 
   190)      1590.4  Rx         0729  1  05 
   191)      1590.6  Rx         0524  6  03 00 00 00 00 2C 
   192)      1609.4  Rx         0521  6  00 01 00 00 03 34 
   193)      1629.6  Rx         0521  6  00 02 00 00 03 20 
   194)      1650.1  Rx         0521  6  00 03 00 00 03 2B 
   195)      1650.3  Rx         0522  6  01 01 00 01 BE 91 
   196)      1650.5  Rx         0523  6  02 01 00 01 BE 84 
   197)      1650.7  Rx         0524  6  03 01 00 00 00 0C 
   198)      1669.8  Rx         0521  6  00 04 00 00 03 05 
   199)      1687.1  Rx         0506  8  08 65 40 01 0E 00 00 00 
   200)      1689.8  Rx         0521  6  00 05 00 00 03 20 
   201)      1690.9  Rx         0729  1  05 
   202)      1710.3  Rx         0521  6  00 06 00 00 03 0C 
   203)      1710.5  Rx         0522  6  01 02 00 01 BE 9D 
   204)      1710.8  Rx         0523  6  02 02 00 01 BE 88 
   205)      1711.0  Rx         0524  6  03 02 FF FF FF F8 
   206)      1729.9  Rx         0521  6  00 07 00 00 03 14 
   207)      1750.0  Rx         0521  6  00 08 00 00 03 12 
   208)      1770.6  Rx         0521  6  00 09 00 00 03 0A 
   209)      1770.8  Rx         0522  6  01 03 00 01 BE 83 
   210)      1771.0  Rx         0523  6  02 03 00 01 BE 88 
   211)      1771.2  Rx         0524  6  03 03 00 00 00 06 
   212)      1790.2  Rx         0521  6  00 0A 00 00 03 2C 
   213)      1791.2  Rx         0729  1  05 
   214)      1807.6  Rx         0506  8  08 65 40 01 0E 00 00 00 
   215)      1810.3  Rx         0521  6  00 0B 00 00 03 09 
   216)      1830.8  Rx         0521  6  00 0C 00 00 03 0E 
   217)      1831.0  Rx         0522  6  01 04 00 01 BE 7F 
   218)      1831.2  Rx         0523  6  02 04 00 01 BE 72 
   219)      1831.5  Rx         0524  6  03 04 00 00 00 06 
   220)      1850.4  Rx         0521  6  00 0D 00 00 03 17 
   221)      1870.5  Rx         0521  6  00 0E 00 00 03 0C 
   222)      1891.1  Rx         0521  6  00 0F 00 00 03 1E 
   223)      1891.3  Rx         0522  6  01 05 00 01 BE 83 
   224)      1891.5  Rx         0523  6  02 05 00 01 BE 82 
   225)      1891.7  Rx         0524  6  03 05 00 00 00 0E 
   226)      1891.8  Rx         0729  1  05 
   227)      1910.7  Rx         0521  6  00 00 00 00 03 03 
   228)      1928.1  Rx         0506  8  08 65 40 01 0E 00 00 00 
   229)      1930.8  Rx         0521  6  00 01 00 00 03 13 
   230)      1951.3  Rx         0521  6  00 02 00 00 03 15 
   231)      1951.6  Rx         0522  6  01 06 00 01 BE 89 
   232)      1951.8  Rx         0523  6  02 06 00 01 BE 84 
   233)      1952.0  Rx         0524  6  03 06 FF FF FF E4 
   234)      1971.0  Rx         0521  6  00 03 00 00 03 1D 
   235)      1991.0  Rx         0521  6  00 04 00 00 03 0D 
   236)      1992.1  Rx         0729  1  05 
   237)      2011.6  Rx         0521  6  00 05 00 00 03 0E 
   238)      2011.8  Rx         0522  6  01 07 00 01 BE 95 
   239)      2012.0  Rx         0523  6  02 07 00 01 BE 80 
   240)      2012.2  Rx         0524  6  03 07 FF FF FF F8 
   241)      2031.2  Rx         0521  6  00 06 00 00 02 FE 
   242)      2048.6  Rx         0506  8  08 65 40 01 0E 00 00 00 
   243)      2051.3  Rx         0521  6  00 07 00 00 03 23 
   244)      2071.8  Rx         0521  6  00 08 00 00 03 12 
   245)      2072.0  Rx         0522  6  01 08 00 01 BE 7B 
   246)      2072.3  Rx         0523  6  02 08 00 01 BE 74 
   247)      2072.5  Rx         0524  6  03 08 00 00 00 00 
   248)      2091.4  Rx         0521  6  00 09 00 00 03 0F 
   249)      2092.6  Rx         0729  1  05 
   250)      2111.5  Rx         0521  6  00 0A 00 00 03 08 
   251)      2132.1  Rx         0521  6  00 0B 00 00 03 33 
   252)      2132.3  Rx         0522  6  01 09 00 01 BE 89 
   253)      2132.5  Rx         0523  6  02 09 00 01 BE 8C 
   254)      2132.7  Rx         0524  6  03 09 FF FF FF FE 
   255)      2151.7  Rx         0521  6  00 0C 00 00 03 0B 
   256)      2169.2  Rx         0506  8  08 65 40 01 0E 00 00 00 
   257)      2171.8  Rx         0521  6  00 0D 00 00 03 16 
   258)      2192.3  Rx         0521  6  00 0E 00 00 03 09 
   259)      2192.5  Rx         0522  6  01 0A 00 01 BE 9F 
   260)      2192.7  Rx         0523  6  02 0A 00 01 BE 80 
   261)      2193.0  Rx         0524  6  03 0A FF FF FF FA 
   262)      2193.1  Rx         0729  1  05 
   263)      2211.9  Rx         0521  6  00 0F 00 00 03 13 
   264)      2232.1  Rx         0521  6  00 00 00 00 03 12 
   265)      2252.6  Rx         0521  6  00 01 00 00 03 09 
   266)      2252.8  Rx         0522  6  01 0B 00 01 BE 8B 
   267)      2253.0  Rx         0523  6  02 0B 00 01 BE 8E 
   268)      2253.2  Rx         0524  6  03 0B 00 00 00 12 
   269)      2272.1  Rx         0521  6  00 02 00 00 03 1C 
   270)      2289.7  Rx         0506  8  08 65 40 01 0E 00 00 00 
   271)      2292.3  Rx         0521  6  00 03 00 00 03 12 
   272)      2293.4  Rx         0729  1  05 
   273)      2312.8  Rx         0521  6  00 04 00 00 03 0A 
   274)      2313.0  Rx         0522  6  01 0C 00 01 BE 87 
   275)      2313.2  Rx         0523  6  02 0C 00 01 BE 84 
   276)      2313.4  Rx         0524  6  03 0C 00 00 00 10 
   277)      2332.4  Rx         0521  6  00 05 00 00 03 18 
   278)      2352.4  Rx         0521  6  00 06 00 00 03 18 
   279)      2373.0  Rx         0521  6  00 07 00 00 03 23 
   280)      2373.3  Rx         0522  6  01 0D 00 01 BE 83 
   281)      2373.5  Rx         0523  6  02 0D 00 01 BE 86 
   282)      2373.7  Rx         0524  6  03 0D 00 00 00 02 
   283)      2392.6  Rx         0521  6  00 08 00 00 03 15 
   284)      2393.9  Rx         0729  1  05 
   285)      2410.2  Rx         0506  8  08 65 40 01 0E 00 00 00 
   286)      2412.7  Rx         0521  6  00 09 00 00 03 0C 
   287)      2433.3  Rx         0521  6  00 0A 00 00 03 20 
   288)      2433.5  Rx         0522  6  01 0E 00 01 BE 8F 
   289)      2433.7  Rx         0523  6  02 0E 00 01 BE 7E 
   290)      2433.9  Rx         0524  6  03 0E 00 00 00 0C 
   291)      2452.9  Rx         0521  6  00 0B 00 00 03 18 
   292)      2472.9  Rx         0521  6  00 0C 00 00 03 06 
   293)      2493.5  Rx         0521  6  00 0D 00 00 03 1A 
   294)      2493.7  Rx         0522  6  01 0F 00 01 BE 91 
   295)      2493.9  Rx         0523  6  02 0F 00 01 BE 8A 
   296)      2494.2  Rx         0524  6  03 0F 00 00 00 06 
   297)      2494.3  Rx         0729  1  05 
   298)      2513.2  Rx         0521  6  00 0E 00 00 03 1B 
   299)      2530.7  Rx         0506  8  08 65 40 01 0E 00 00 00 
   300)      2533.2  Rx         0521  6  00 0F 00 00 03 0C 
   301)      2553.7  Rx         0521  6  00 00 00 00 03 08 
   302)      2554.0  Rx         0522  6  01 00 00 01 BE 8D 
   303)      2554.2  Rx         0523  6  02 00 00 01 BE 88 
   304)      2554.4  Rx         0524  6  03 00 FF FF FF EC 
   305)      2573.3  Rx         0521  6  00 01 00 00 03 0F 
   306)      2593.4  Rx         0521  6  00 02 00 00 03 1C 
   307)      2594.7  Rx         0729  1  05 
   308)      2614.0  Rx         0521  6  00 03 00 00 03 15 
   309)      2614.2  Rx         0522  6  01 01 00 01 BE 91 
   310)      2614.4  Rx         0523  6  02 01 00 01 BE 90 
   311)      2614.7  Rx         0524  6  03 01 FF FF FF F6 
   312)      2633.7  Rx         0521  6  00 04 00 00 03 1C 
   313)      2651.2  Rx         0506  8  08 65 40 01 0E 00 00 00 
   314)      2653.8  Rx         0521  6  00 05 00 00 03 1B 
   315)      2674.2  Rx         0521  6  00 06 00 00 03 18 
   316)      2674.4  Rx         0522  6  01 02 00 01 BE 95 
   317)      2674.7  Rx         0523  6  02 02 00 01 BE 7A 
   318)      2674.9  Rx         0524  6  03 02 00 00 00 04 
   319)      2693.8  Rx         0521  6  00 07 00 00 03 0C 
   320)      2695.1  Rx         0729  1  05 
   321)      2713.9  Rx         0521  6  00 08 00 00 03 20 
   322)      2734.5  Rx         0521  6  00 09 00 00 03 19 
   323)      2734.7  Rx         0522  6  01 03 00 01 BE 87 
   324)      2734.9  Rx         0523  6  02 03 00 01 BE 76 
   325)      2735.1  Rx         0524  6  03 03 00 00 00 0A 
   326)      2754.1  Rx         0521  6  00 0A 00 00 03 2D 
   327)      2771.7  Rx         0506  8  08 65 40 01 0E 00 00 00 
   328)      2774.2  Rx         0521  6  00 0B 00 00 03 14 
   329)      2794.7  Rx         0521  6  00 0C 00 00 03 15 
   330)      2794.9  Rx         0522  6  01 04 00 01 BE 9F 
   331)      2795.1  Rx         0523  6  02 04 00 01 BE 8C 
   332)      2795.4  Rx         0524  6  03 04 00 00 00 02 
   333)      2795.5  Rx         0729  1  05 
   334)      2814.3  Rx         0521  6  00 0D 00 00 03 11 
   335)      2834.4  Rx         0521  6  00 0E 00 00 03 39 
   336)      2855.0  Rx         0521  6  00 0F 00 00 03 1E 
   337)      2855.2  Rx         0522  6  01 05 00 01 BE 91 
   338)      2855.4  Rx         0523  6  02 05 00 01 BE 9A 
   339)      2855.6  Rx         0524  6  03 05 00 00 00 00 
   340)      2874.5  Rx         0521  6  00 00 00 00 03 1B 
   341)      2892.2  Rx         0506  8  08 65 40 01 0E 00 00 00 
   342)      2894.6  Rx         0521  6  00 01 00 00 03 1C 
   343)      2896.0  Rx         0729  1  05 
   344)      2915.2  Rx         0521  6  00 02 00 00 03 1D 
   345)      2915.4  Rx         0522  6  01 06 00 01 BE 89 
   346)      2915.6  Rx         0523  6  02 06 00 01 BE 80 
   347)      2915.8  Rx         0524  6  03 06 00 00 00 10 
   348)      2934.8  Rx         0521  6  00 03 00 00 02 FC 
   349)      2954.9  Rx         0521  6  00 04 00 00 03 16 
   350)      2975.4  Rx         0521  6  00 05 00 00 03 24 
   351)      2975.6  Rx         0522  6  01 07 00 01 BE 89 
   352)      2975.8  Rx         0523  6  02 07 00 01 BE 7A 
   353)      2976.1  Rx         0524  6  03 07 FF FF FF EA 
   354)      2995.0  Rx         0521  6  00 06 00 00 03 21 
   355)      2996.3  Rx         0729  1  05 
   356)      3012.7  Rx         0506  8  08 65 40 01 0E 00 00 00 
   357)      3015.1  Rx         0521  6  00 07 00 00 03 33 
   358)      3035.6  Rx         0521  6  00 08 00 00 03 0F 
   359)      3035.8  Rx         0522  6  01 08 00 01 BE 8D 
   360)      3036.0  Rx         0523  6  02 08 00 01 BE 68 
   361)      3036.3  Rx         0524  6  03 08 FF FF FF F8 
   362)      3055.3  Rx         0521  6  00 09 00 00 03 29 
   363)      3075.4  Rx         0521  6  00 0A 00 00 03 18 
   364)      3095.9  Rx         0521  6  00 0B 00 00 03 0C 
   365)      3096.1  Rx         0522  6  01 09 00 01 BE 9F 
   366)      3096.3  Rx         0523  6  02 09 00 01 BE 74 
   367)      3096.5  Rx         0524  6  03 09 00 00 00 0A 
   368)      3096.8  Rx         0729  1  05 
   369)      3115.4  Rx         0521  6  00 0C 00 00 03 0D 
   370)      3133.2  Rx         0506  8  08 65 40 01 0E 00 00 00 
   371)      3135.5  Rx         0521  6  00 0D 00 00 03 23 
   372)      3156.1  Rx         0521  6  00 0E 00 00 03 18 
   373)      3156.3  Rx         0522  6  01 0A 00 01 BE 95 
   374)      3156.5  Rx         0523  6  02 0A 00 01 BE 7C 
   375)      3156.7  Rx         0524  6  03 0A 00 00 00 04 
   376)      3175.8  Rx         0521  6  00 0F 00 00 03 1F 
   377)      3195.9  Rx         0521  6  00 00 00 00 03 24 
   378)      3197.1  Rx         0729  1  05 
   379)      3216.3  Rx         0521  6  00 01 00 00 03 23 
   380)      3216.6  Rx         0522  6  01 0B 00 01 BE 9D 
   381)      3216.8  Rx         0523  6  02 0B 00 01 BE 86 
   382)      3217.0  Rx         0524  6  03 0B FF FF FF F6 
   383)      3235.9  Rx         0521  6  00 02 00 00 03 26 
   384)      3253.7  Rx         0506  8  08 65 40 01 0E 00 00 00 
   385)      3256.0  Rx         0521  6  00 03 00 00 03 22 
   386)      3276.6  Rx         0521  6  00 04 00 00 03 26 
   387)      3276.8  Rx         0522  6  01 0C 00 01 BE 89 
   388)      3277.0  Rx         0523  6  02 0C 00 01 BE 80 
   389)      3277.2  Rx         0524  6  03 0C FF FF FF FC 
   390)      3296.2  Rx         0521  6  00 05 00 00 03 32 
   391)      3297.6  Rx         0729  1  05 
   392)      3316.3  Rx         0521  6  00 06 00 00 03 21 
   393)      3336.8  Rx         0521  6  00 07 00 00 03 2B 
   394)      3337.1  Rx         0522  6  01 0D 00 01 BE 8F 
   395)      3337.3  Rx         0523  6  02 0D 00 01 BE 9E 
   396)      3337.5  Rx         0524  6  03 0D 00 00 00 0A 
   397)      3356.5  Rx         0521  6  00 08 00 00 03 15 
   398)      3374.2  Rx         0506  8  08 65 40 01 0E 00 00 00 
   399)      3376.5  Rx         0521  6  00 09 00 00 03 2C 
   400)      3397.1  Rx         0521  6  00 0A 00 00 03 26 
   401)      3397.3  Rx         0522  6  01 0E 00 01 BE 8B 
   402)      3397.5  Rx         0523  6  02 0E 00 01 BE 88 
   403)      3397.7  Rx         0524  6  03 0E 00 00 00 00 
   404)      3398.0  Rx         0729  1  05 
   405)      3416.8  Rx         0521  6  00 0B 00 00 03 1C 
   406)      3436.8  Rx         0521  6  00 0C 00 00 03 15 
   407)      3457.3  Rx         0521  6  00 0D 00 00 03 28 
   408)      3457.5  Rx         0522  6  01 0F 00 01 BE 89 
   409)      3457.8  Rx         0523  6  02 0F 00 01 BE 84 
   410)      3458.0  Rx         0524  6  03 0F FF FF FF F2 
   411)      3476.9  Rx         0521  6  00 0E 00 00 03 2B 
   412)      3494.7  Rx         0506  8  08 65 40 01 0E 00 00 00 
   413)      3497.0  Rx         0521  6  00 0F 00 00 03 28 
   414)      3498.5  Rx         0729  1  05 
   415)      3517.6  Rx         0521  6  00 00 00 00 03 02 
   416)      3517.8  Rx         0522  6  01 00 00 01 BE 8F 
   417)      3518.0  Rx         0523  6  02 00 00 01 BE 76 
   418)      3518.2  Rx         0524  6  03 00 00 00 00 0E 
   419)      3537.2  Rx         0521  6  00 01 00 00 03 3C 
   420)      3557.3  Rx         0521  6  00 02 00 00 03 1B 
   421)      3577.8  Rx         0521  6  00 03 00 00 03 0D 
   422)      3578.0  Rx         0522  6  01 01 00 01 BE 9F 
   423)      3578.2  Rx         0523  6  02 01 00 01 BE 82 
   424)      3578.5  Rx         0524  6  03 01 00 00 00 00 
   425)      3597.4  Rx         0521  6  00 04 00 00 03 08 
   426)      3598.9  Rx         0729  1  05 
   427)      3615.2  Rx         0506  8  08 65 40 01 0E 00 00 00 
   428)      3617.6  Rx         0521  6  00 05 00 00 03 1B 
   429)      3638.1  Rx         0521  6  00 06 00 00 03 14 
   430)      3638.3  Rx         0522  6  01 02 00 01 BE 87 
   431)      3638.5  Rx         0523  6  02 02 00 01 BE 8E 
   432)      3638.7  Rx         0524  6  03 02 00 00 00 02 
   433)      3657.7  Rx         0521  6  00 07 00 00 03 0B 
   434)      3677.7  Rx         0521  6  00 08 00 00 03 16 
   435)      3698.3  Rx         0521  6  00 09 00 00 03 2C 
   436)      3698.5  Rx         0522  6  01 03 00 01 BE 7B 
   437)      3698.7  Rx         0523  6  02 03 00 01 BE 7E 
   438)      3698.9  Rx         0524  6  03 03 FF FF FF EA 
   439)      3699.3  Rx         0729  1  05 
   440)      3718.0  Rx         0521  6  00 0A 00 00 03 37 
   441)      3735.8  Rx         0506  8  08 65 40 01 0E 00 00 00 
   442)      3738.1  Rx         0521  6  00 0B 00 00 03 1B 
   443)      3758.5  Rx         0521  6  00 0C 00 00 03 22 
   444)      3758.8  Rx         0522  6  01 04 00 01 BE 93 
   445)      3759.0  Rx         0523  6  02 04 00 01 BE 7E 
   446)      3759.2  Rx         0524  6  03 04 FF FF FF F6 
   447)      3778.1  Rx         0521  6  00 0D 00 00 03 38 
   448)      3798.3  Rx         0521  6  00 0E 00 00 03 1A 
   449)      3799.8  Rx         0729  1  05 
   450)      3818.8  Rx         0521  6  00 0F 00 00 02 EF 
   451)      3819.0  Rx         0522  6  01 05 00 01 BE 8B 
   452)      3819.2  Rx         0523  6  02 05 00 01 BE 76 
   453)      3819.4  Rx         0524  6  03 05 FF FF FF FA 
   454)      3838.4  Rx         0521  6  00 00 00 00 02 D8 
   455)      3856.3  Rx         0506  8  08 65 40 01 0E 00 00 00 
   456)      3858.5  Rx         0521  6  00 01 00 00 02 E5 
   457)      3879.0  Rx         0521  6  00 02 00 00 02 EC 
   458)      3879.3  Rx         0522  6  01 06 00 01 BE 93 
   459)      3879.5  Rx         0523  6  02 06 00 01 BE 82 
   460)      3879.7  Rx         0524  6  03 06 00 00 00 0C 
   461)      3898.6  Rx         0521  6  00 03 00 00 02 E9 
   462)      3900.2  Rx         0729  1  05 
   463)      3918.7  Rx         0521  6  00 04 00 00 02 CE 
   464)      3939.3  Rx         0521  6  00 05 00 00 02 CD 
   465)      3939.5  Rx         0522  6  01 07 00 01 BE 93 
   466)      3939.7  Rx         0523  6  02 07 00 01 BE 82 
   467)      3940.0  Rx         0524  6  03 07 00 00 00 0C 
   468)      3958.9  Rx         0521  6  00 06 00 00 02 DA 
   469)      3976.8  Rx         0506  8  08 65 40 01 0E 00 00 00 
   470)      3978.9  Rx         0521  6  00 07 00 00 02 D5 
   471)      3999.5  Rx         0521  6  00 08 00 00 02 BC 
   472)      3999.7  Rx         0522  6  01 08 00 01 BE 93 
   473)      3999.9  Rx         0523  6  02 08 00 01 BE 7E 
   474)      4000.2  Rx         0524  6  03 08 00 00 00 10 
   475)      4000.6  Rx         0729  1  05 
   476)      4019.1  Rx         0521  6  00 09 00 00 02 D7 
   477)      4039.3  Rx         0521  6  00 0A 00 00 02 D5 
   478)      4059.8  Rx         0521  6  00 0B 00 00 02 DA 
   479)      4060.0  Rx         0522  6  01 09 00 01 BE 97 
   480)      4060.2  Rx         0523  6  02 09 00 01 BE A0 
   481)      4060.4  Rx         0524  6  03 09 00 00 00 1A 
   482)      4079.3  Rx         0521  6  00 0C 00 00 02 D8 
   483)      4097.3  Rx         0506  8  08 65 40 01 0E 00 00 00 
   484)      4099.5  Rx         0521  6  00 0D 00 00 02 D7 
   485)      4101.0  Rx         0729  1  05 
   486)      4120.0  Rx         0521  6  00 0E 00 00 02 BF 
   487)      4120.2  Rx         0522  6  01 0A 00 01 BE 85 
   488)      4120.4  Rx         0523  6  02 0A 00 01 BE 94 
   489)      4120.6  Rx         0524  6  03 0A 00 00 00 04 
   490)      4139.6  Rx         0521  6  00 0F 00 00 02 D0 
   491)      4159.7  Rx         0521  6  00 00 00 00 02 B4 
   492)      4180.2  Rx         0521  6  00 01 00 00 02 CA 
   493)      4180.5  Rx         0522  6  01 0B 00 01 BE 99 
   494)      4180.7  Rx         0523  6  02 0B 00 01 BE 8A 
   495)      4180.9  Rx         0524  6  03 0B 00 00 00 06 
   496)      4199.8  Rx         0521  6  00 02 00 00 02 B6 
   497)      4201.5  Rx         0729  1  05 
   498)      4217.8  Rx         0506  8  08 65 40 01 0E 00 00 00 
   499)      4219.9  Rx         0521  6  00 03 00 00 02 C9 
   500)      4240.5  Rx         0521  6  00 04 00 00 02 B3 
   501)      4240.7  Rx         0522  6  01 0C 00 01 BE 87 
   502)      4240.9  Rx         0523  6  02 0C 00 01 BE 90 
   503)      4241.1  Rx         0524  6  03 0C 00 00 00 00 
   504)      4260.1  Rx         0521  6  00 05 00 00 02 CB 
   505)      4301.9  Rx         0729  1  05 
   506)     26760.5  Rx         0511  8  BF 04 11 00 00 20 BB 00 
   507)     26784.5  Rx         0521  6  00 61 00 00 02 A5 
   508)     26804.6  Rx         0521  6  00 62 00 00 02 B9 
   509)     26825.0  Rx         0521  6  00 63 00 00 02 D0 
   510)     26825.3  Rx         0522  6  01 61 00 01 A8 3A 
   511)     26825.5  Rx         0523  6  02 61 00 01 75 45 
   512)     26825.7  Rx         0524  6  03 61 FF FF FF FE 
   513)     26844.8  Rx         0521  6  00 64 00 00 02 BA 
   514)     26864.8  Rx         0521  6  00 05 00 00 02 B9 
   515)     26885.3  Rx         0521  6  00 06 00 00 02 BE 
   516)     26885.5  Rx         0522  6  01 02 00 01 BE 85 
   517)     26885.8  Rx         0523  6  02 02 00 01 74 F6 
   518)     26886.0  Rx         0524  6  03 02 00 00 00 1A 
   519)     26905.0  Rx         0521  6  00 07 00 00 02 D1 
   520)     26925.0  Rx         0521  6  00 08 00 00 02 B9 
   521)     26945.5  Rx         0521  6  00 09 00 00 02 D1 
   522)     26945.7  Rx         0522  6  01 03 00 01 BE 9B 
   523)     26946.0  Rx         0523  6  02 03 00 01 74 9A 
   524)     26946.2  Rx         0524  6  03 03 FF FF FF FA 
   525)     26965.3  Rx         0521  6  00 0A 00 00 02 C7 
   526)     26985.3  Rx         0521  6  00 0B 00 00 02 DD 
   527)     27005.9  Rx         0521  6  00 0C 00 00 02 CA 
   528)     27006.1  Rx         0522  6  01 04 00 01 BE 9B 
   529)     27006.3  Rx         0523  6  02 04 00 01 74 3A 
   530)     27006.5  Rx         0524  6  03 04 00 00 00 10 
   531)     27025.5  Rx         0521  6  00 0D 00 00 02 D0 
   532)     27045.5  Rx         0521  6  00 0E 00 00 02 CF 
   533)     27066.1  Rx         0521  6  00 0F 00 00 02 DC 
   534)     27066.3  Rx         0522  6  01 05 00 01 BE 7D 
   535)     27066.5  Rx         0523  6  02 05 00 01 74 00 
   536)     27066.8  Rx         0524  6  03 05 00 00 00 12 
   537)     27085.8  Rx         0521  6  00 00 00 00 02 D5 
   538)     27086.1  Rx         0729  1  05 
   539)     27102.3  Rx         0506  8  08 5A 40 01 0E 00 00 00 
   540)     27105.8  Rx         0521  6  00 01 00 00 02 DA 
   541)     27126.3  Rx         0521  6  00 02 00 00 02 CC 
   542)     27126.6  Rx         0522  6  01 06 00 01 BE 91 
   543)     27126.8  Rx         0523  6  02 06 00 01 73 A1 
   544)     27127.0  Rx         0524  6  03 06 FF FF FF F4 
   545)     27145.9  Rx         0521  6  00 03 00 00 02 C4 
   546)     27166.0  Rx         0521  6  00 04 00 00 02 DB 
   547)     27186.5  Rx         0729  1  05 
   548)     27186.6  Rx         0521  6  00 05 00 00 02 E6 
   549)     27186.8  Rx         0522  6  01 07 00 01 BE 77 
   550)     27187.1  Rx         0523  6  02 07 00 01 73 6F 
   551)     27187.3  Rx         0524  6  03 07 00 00 00 06 
   552)     27206.2  Rx         0521  6  00 06 00 00 02 F8 
   553)     27222.9  Rx         0506  8  08 5A 40 01 0E 00 00 00 
   554)     27226.4  Rx         0521  6  00 07 00 00 02 E1 
   555)     27246.8  Rx         0521  6  00 08 00 00 04 41 
   556)     27247.1  Rx         0522  6  01 08 00 01 BE 8B 
   557)     27247.3  Rx         0523  6  02 08 00 01 73 91 
   558)     27247.5  Rx         0524  6  03 08 FF FF FF F2 
   559)     27266.5  Rx         0521  6  00 09 00 00 04 4A 
   560)     27286.5  Rx         0521  6  00 0A 00 00 04 5E 
   561)     27286.9  Rx         0729  1  05 
   562)     27307.1  Rx         0521  6  00 0B 00 00 04 47 
   563)     27307.3  Rx         0522  6  01 09 00 01 BE 8D 
   564)     27307.5  Rx         0523  6  02 09 00 01 78 57 
   565)     27307.8  Rx         0524  6  03 09 FF FF FF F0 
   566)     27326.7  Rx         0521  6  00 0C 00 00 04 1A 
   567)     27343.3  Rx         0506  8  08 5A 40 01 0E 00 00 00 
   568)     27346.8  Rx         0521  6  00 0D 00 00 04 1E 
   569)     27367.4  Rx         0521  6  00 0E 00 00 04 2C 
   570)     27367.6  Rx         0522  6  01 0A 00 01 BE 83 
   571)     27367.8  Rx         0523  6  02 0A 00 01 7D C9 
   572)     27368.0  Rx         0524  6  03 0A 00 00 00 08 
   573)     27387.0  Rx         0521  6  00 0F 00 00 03 53 
   574)     27387.3  Rx         0729  1  05 
   575)     27407.0  Rx         0521  6  00 00 00 00 02 D7 
   576)     27427.6  Rx         0521  6  00 01 00 00 02 C8 
   577)     27427.8  Rx         0522  6  01 0B 00 01 BE 99 
   578)     27428.0  Rx         0523  6  02 0B 00 01 78 97 
   579)     27428.3  Rx         0524  6  03 0B FF FF FF F2 
   580)     27447.2  Rx         0521  6  00 02 00 00 02 BA 
   581)     27463.9  Rx         0506  8  08 5A 40 01 0E 00 00 00 
   582)     27467.3  Rx         0521  6  00 03 00 00 38 4F 
   583)     27487.7  Rx         0729  1  05 
   584)     27487.9  Rx         0521  6  00 04 00 00 03 EC 
   585)     27488.1  Rx         0522  6  01 0C 00 01 BE 75 
   586)     27488.3  Rx         0523  6  02 0C 00 01 94 8B 
   587)     27488.5  Rx         0524  6  03 0C 00 00 00 0A 
   588)     27507.4  Rx         0521  6  00 05 00 00 03 99 
   589)     27527.6  Rx         0521  6  00 06 00 00 03 3F 
   590)     27548.1  Rx         0521  6  00 07 00 00 03 08 
   591)     27548.3  Rx         0522  6  01 0D 00 01 BE 95 
   592)     27548.5  Rx         0523  6  02 0D 00 01 BE 88 
   593)     27548.7  Rx         0524  6  03 0D 00 00 00 16 
   594)     27567.8  Rx         0521  6  00 08 00 00 02 F2 
   595)     27584.4  Rx         0506  8  08 5A 40 01 0E 00 00 00 
   596)     27587.9  Rx         0521  6  00 09 00 00 03 3D 
   597)     27588.5  Rx         0729  1  05 
   598)     27608.4  Rx         0521  6  00 0A 00 00 09 6F 
   599)     27608.6  Rx         0522  6  01 0E 00 01 BE 8F 
   600)     27608.8  Rx         0523  6  02 0E 00 01 BE 8E 
   601)     27609.0  Rx         0524  6  03 0E FF FF FF EE 
   602)     27627.9  Rx         0521  6  00 0B 00 00 0B 69 
   603)     27648.0  Rx         0521  6  00 0C 00 00 0B 22 
   604)     27668.6  Rx         0521  6  00 0D 00 00 0B 16 
   605)     27668.8  Rx         0522  6  01 0F 00 01 BE 79 
   606)     27669.1  Rx         0523  6  02 0F 00 01 BE 7A 
   607)     27669.3  Rx         0524  6  03 0F 00 00 00 1C 
   608)     27688.2  Rx         0521  6  00 0E 00 00 0B 06 
   609)     27688.9  Rx         0729  1  05 
   610)     27704.9  Rx         0506  8  08 65 40 01 0E 00 00 00 
   611)     27708.3  Rx         0521  6  00 0F 00 00 03 95 
   612)     27728.9  Rx         0521  6  00 00 00 00 03 0F 
   613)     27729.1  Rx         0522  6  01 00 00 01 BE 8B 
   614)     27729.3  Rx         0523  6  02 00 00 01 BE 90 
   615)     27729.5  Rx         0524  6  03 00 00 00 00 00 
   616)     27748.5  Rx         0521  6  00 01 00 00 03 0D 
   617)     27768.6  Rx         0521  6  00 02 00 00 02 F5 
   618)     27789.0  Rx         0729  1  05 
   619)     27789.2  Rx         0521  6  00 03 00 00 02 FF 
   620)     27789.4  Rx         0522  6  01 01 00 01 BE 85 
   621)     27789.6  Rx         0523  6  02 01 00 01 BE 78 
   622)     27789.8  Rx         0524  6  03 01 FF FF FF FA 
   623)     27808.7  Rx         0521  6  00 04 00 00 03 06 
   624)     27825.4  Rx         0506  8  08 65 40 01 0E 00 00 00 
   625)     27828.8  Rx         0521  6  00 05 00 00 03 0B 
   626)     27849.4  Rx         0521  6  00 06 00 00 03 0C 
   627)     27849.6  Rx         0522  6  01 02 00 01 BE 8F 
   628)     27849.8  Rx         0523  6  02 02 00 01 BE 8A 
   629)     27850.0  Rx         0524  6  03 02 00 00 00 12 
   630)     27868.9  Rx         0521  6  00 07 00 00 02 EB 
   631)     27889.1  Rx         0521  6  00 08 00 00 03 03 
   632)     27889.4  Rx         0729  1  05 
   633)     27909.6  Rx         0521  6  00 09 00 00 02 F3 
   634)     27909.8  Rx         0522  6  01 03 00 01 BE 81 
   635)     27910.0  Rx         0523  6  02 03 00 01 BE 7C 
   636)     27910.2  Rx         0524  6  03 03 00 00 00 0A 
   637)     27929.3  Rx         0521  6  00 0A 00 00 03 02 
   638)     27945.9  Rx         0506  8  08 65 40 01 0E 00 00 00 
   639)     27949.4  Rx         0521  6  00 0B 00 00 03 0E 
   640)     27969.9  Rx         0521  6  00 0C 00 00 02 FA 
   641)     27970.1  Rx         0522  6  01 04 00 01 BE 91 
   642)     27970.3  Rx         0523  6  02 04 00 01 BE 96 
   643)     27970.5  Rx         0524  6  03 04 00 00 00 18 
   644)     27989.5  Rx         0521  6  00 0D 00 00 02 FD 
   645)     27989.8  Rx         0729  1  05 
   646)     28009.6  Rx         0521  6  00 0E 00 00 03 00 
   647)     28030.1  Rx         0521  6  00 0F 00 00 03 0E 
   648)     28030.3  Rx         0522  6  01 05 00 01 BE 91 
   649)     28030.6  Rx         0523  6  02 05 00 01 BE 78 
   650)     28030.8  Rx         0524  6  03 05 00 00 00 10 
   651)     28049.7  Rx         0521  6  00 00 00 00 03 03 
   652)     28066.6  Rx         0506  8  08 65 40 01 0E 00 00 00 
   653)     28069.8  Rx         0521  6  00 01 00 00 03 0F 
   654)     28090.4  Rx         0521  6  00 02 00 00 03 12 
   655)     28090.5  Rx         0729  1  05 
   656)     28090.7  Rx         0522  6  01 06 00 01 BE 8B 
   657)     28090.9  Rx         0523  6  02 06 00 01 BE 8C 
   658)     28091.1  Rx         0524  6  03 06 00 00 00 04 
   659)     28110.0  Rx         0521  6  00 03 00 00 03 09 
   660)     28130.1  Rx         0521  6  00 04 00 00 03 15 
   661)     28150.6  Rx         0521  6  00 05 00 00 02 FF 
   662)     28150.8  Rx         0522  6  01 07 00 01 BE 7D 
   663)     28151.0  Rx         0523  6  02 07 00 01 BE 90 
   664)     28151.3  Rx         0524  6  03 07 00 00 00 02 
   665)     28170.3  Rx         0521  6  00 06 00 00 03 13 
   666)     28187.0  Rx         0506  8  08 65 40 01 0E 00 00 00 
   667)     28190.3  Rx         0521  6  00 07 00 00 03 07 
   668)     28190.7  Rx         0729  1  05 
   669)     28210.9  Rx         0521  6  00 08 00 00 02 F8 
   670)     28211.1  Rx         0522  6  01 08 00 01 BE 81 
   671)     28211.3  Rx         0523  6  02 08 00 01 BE 8E 
   672)     28211.5  Rx         0524  6  03 08 00 00 00 00 
   673)     28230.4  Rx         0521  6  00 09 00 00 03 0D 
   674)     28250.5  Rx         0521  6  00 0A 00 00 03 05 
   675)     28271.1  Rx         0521  6  00 0B 00 00 03 02 
   676)     28271.3  Rx         0522  6  01 09 00 01 BE 87 
   677)     28271.5  Rx         0523  6  02 09 00 01 BE 86 
   678)     28271.8  Rx         0524  6  03 09 00 00 00 06 
   679)     28290.8  Rx         0521  6  00 0C 00 00 03 05 
   680)     28291.2  Rx         0729  1  05 
   681)     28307.5  Rx         0506  8  08 65 40 01 0E 00 00 00 
   682)     28310.9  Rx         0521  6  00 0D 00 00 03 12 
   683)     28331.3  Rx         0521  6  00 0E 00 00 03 1C 
   684)     28331.6  Rx         0522  6  01 0A 00 01 BE 8B 
   685)     28331.8  Rx         0523  6  02 0A 00 01 BE 88 
   686)     28332.0  Rx         0524  6  03 0A FF FF FF FE 
   687)     28350.9  Rx         0521  6  00 0F 00 00 03 0C 
   688)     28371.0  Rx         0521  6  00 00 00 00 03 05 
   689)     28391.6  Rx         0521  6  00 01 00 00 03 06 
   690)     28391.7  Rx         0729  1  05 
   691)     28391.9  Rx         0522  6  01 0B 00 01 BE 83 
   692)     28392.1  Rx         0523  6  02 0B 00 01 BE 92 
   693)     28392.4  Rx         0524  6  03 0B 00 00 00 0A 
   694)     28411.2  Rx         0521  6  00 02 00 00 03 0E 
   695)     28428.0  Rx         0506  8  08 65 40 01 0E 00 00 00 
   696)     28431.3  Rx         0521  6  00 03 00 00 02 F3 
   697)     28451.8  Rx         0521  6  00 04 00 00 03 08 
   698)     28452.1  Rx         0522  6  01 0C 00 01 BE 7D 
   699)     28452.3  Rx         0523  6  02 0C 00 01 BE 6E 
   700)     28452.5  Rx         0524  6  03 0C 00 00 00 04 
   701)     28471.4  Rx         0521  6  00 05 00 00 03 0E 
   702)     28491.5  Rx         0521  6  00 06 00 00 03 16 
   703)     28491.9  Rx         0729  1  05 
   704)     28512.1  Rx         0521  6  00 07 00 00 03 16 
   705)     28512.3  Rx         0522  6  01 0D 00 01 BE 81 
   706)     28512.5  Rx         0523  6  02 0D 00 01 BE 88 
   707)     28512.8  Rx         0524  6  03 0D FF FF FF FC 
   708)     28531.8  Rx         0521  6  00 08 00 00 03 07 
   709)     28548.5  Rx         0506  8  08 65 40 01 0E 00 00 00 
   710)     28551.8  Rx         0521  6  00 09 00 00 02 FF 
   711)     28572.3  Rx         0521  6  00 0A 00 00 02 F6 
   712)     28572.5  Rx         0522  6  01 0E 00 01 BE 7D 
   713)     28572.8  Rx         0523  6  02 0E 00 01 BE 98 
   714)     28573.0  Rx         0524  6  03 0E 00 00 00 18 
   715)     28592.0  Rx         0521  6  00 0B 00 00 02 FF 
   716)     28592.4  Rx         0729  1  05 
   717)     28612.0  Rx         0521  6  00 0C 00 00 03 0F 
   718)     28632.6  Rx         0521  6  00 0D 00 00 03 05 
   719)     28632.8  Rx         0522  6  01 0F 00 01 BE 8D 
   720)     28633.0  Rx         0523  6  02 0F 00 01 BE 82 
   721)     28633.2  Rx         0524  6  03 0F 00 00 00 10 
   722)     28652.2  Rx         0521  6  00 0E 00 00 03 0F 
   723)     28669.0  Rx         0506  8  08 65 40 01 0E 00 00 00 
   724)     28672.3  Rx         0521  6  00 0F 00 00 03 03 
   725)     28692.8  Rx         0521  6  00 00 00 00 03 0D 
   726)     28692.9  Rx         0729  1  05 
   727)     28693.2  Rx         0522  6  01 00 00 01 BE 89 
   728)     28693.4  Rx         0523  6  02 00 00 01 BE 94 
   729)     28693.6  Rx         0524  6  03 00 00 00 00 0A 
   730)     28712.4  Rx         0521  6  00 01 00 00 02 FE 
   731)     28732.5  Rx         0521  6  00 02 00 00 02 FB 
   732)     28753.1  Rx         0521  6  00 03 00 00 02 E2 
   733)     28753.3  Rx         0522  6  01 01 00 01 BE 93 
   734)     28753.5  Rx         0523  6  02 01 00 01 BE 84 
   735)     28753.7  Rx         0524  6  03 01 FF FF FF F4 
   736)     28772.7  Rx         0521  6  00 04 00 00 03 0F 
   737)     28789.5  Rx         0506  8  08 65 40 01 0E 00 00 00 
   738)     28792.7  Rx         0521  6  00 05 00 00 03 09 
   739)     28793.3  Rx         0729  1  05 
   740)     28813.3  Rx         0521  6  00 06 00 00 03 09 
   741)     28813.5  Rx         0522  6  01 02 00 01 BE 8F 
   742)     28813.7  Rx         0523  6  02 02 00 01 BE 86 
   743)     28814.0  Rx         0524  6  03 02 00 00 00 0A 
   744)     28833.0  Rx         0521  6  00 07 00 00 02 FE 
   745)     28853.1  Rx         0521  6  00 08 00 00 02 FE 
   746)     28873.5  Rx         0521  6  00 09 00 00 03 02 
   747)     28873.8  Rx         0522  6  01 03 00 01 BE 97 
   748)     28874.0  Rx         0523  6  02 03 00 01 BE 92 
   749)     28874.2  Rx         0524  6  03 03 00 00 00 0E 
   750)     28893.2  Rx         0521  6  00 0A 00 00 03 02 
   751)     28893.6  Rx         0729  1  05 
   752)     28910.0  Rx         0506  8  08 65 40 01 0E 00 00 00 
   753)     28913.3  Rx         0521  6  00 0B 00 00 02 F9 
   754)     28933.8  Rx         0521  6  00 0C 00 00 02 EF 
   755)     28934.0  Rx         0522  6  01 04 00 01 BE 9D 
   756)     28934.3  Rx         0523  6  02 04 00 01 BE 80 
   757)     28934.5  Rx         0524  6  03 04 00 00 00 18 
   758)     28953.5  Rx         0521  6  00 0D 00 00 02 FF 
   759)     28973.6  Rx         0521  6  00 0E 00 00 02 F6 
   760)     28994.1  Rx         0521  6  00 0F 00 00 03 01 
   761)     28994.2  Rx         0729  1  05 
   762)     28994.4  Rx         0522  6  01 05 00 01 BE 93 
   763)     28994.6  Rx         0523  6  02 05 00 01 BE 92 
   764)     28994.8  Rx         0524  6  03 05 FF FF FF FA 
   765)     29013.7  Rx         0521  6  00 00 00 00 02 F5 
   766)     29030.5  Rx         0506  8  08 65 40 01 0E 00 00 00 
   767)     29033.7  Rx         0521  6  00 01 00 00 02 E3 
   768)     29054.3  Rx         0521  6  00 02 00 00 02 FB 
   769)     29054.5  Rx         0522  6  01 06 00 01 BE 89 
   770)     29054.7  Rx         0523  6  02 06 00 01 BE 6E 
   771)     29055.0  Rx         0524  6  03 06 00 00 00 00 
   772)     29074.0  Rx         0521  6  00 03 00 00 02 FA 
   773)     29094.0  Rx         0521  6  00 04 00 00 02 FD 
   774)     29094.5  Rx         0729  1  05 
   775)     29114.6  Rx         0521  6  00 05 00 00 02 FD 
   776)     29114.8  Rx         0522  6  01 07 00 01 BE 95 
   777)     29115.0  Rx         0523  6  02 07 00 01 BE 6E 
   778)     29115.2  Rx         0524  6  03 07 FF FF FF FE 
   779)     29134.2  Rx         0521  6  00 06 00 00 03 04 
   780)     29151.0  Rx         0506  8  08 65 40 01 0E 00 00 00 
   781)     29154.3  Rx         0521  6  00 07 00 00 02 F7 
   782)     29174.8  Rx         0521  6  00 08 00 00 02 F0 
   783)     29175.0  Rx         0522  6  01 08 00 01 BE 87 
   784)     29175.2  Rx         0523  6  02 08 00 01 BE 88 
   785)     29175.5  Rx         0524  6  03 08 00 00 00 10 
   786)     29194.4  Rx         0521  6  00 09 00 00 02 FC 
   787)     29195.0  Rx         0729  1  05 
   788)     29214.5  Rx         0521  6  00 0A 00 00 02 EB 
   789)     29235.0  Rx         0521  6  00 0B 00 00 03 08 
   790)     29235.3  Rx         0522  6  01 09 00 01 BE 7F 
   791)     29235.5  Rx         0523  6  02 09 00 01 BE 86 
   792)     29235.7  Rx         0524  6  03 09 00 00 00 2A 
   793)     29254.6  Rx         0521  6  00 0C 00 00 03 1C 
   794)     29271.6  Rx         0506  8  08 65 40 01 0E 00 00 00 
   795)     29274.8  Rx         0521  6  00 0D 00 00 03 0C 
   796)     29295.3  Rx         0521  6  00 0E 00 00 03 00 
   797)     29295.4  Rx         0729  1  05 
   798)     29295.6  Rx         0522  6  01 0A 00 01 BE 89 
   799)     29295.8  Rx         0523  6  02 0A 00 01 BE 8A 
   800)     29296.1  Rx         0524  6  03 0A 00 00 00 02 
   801)     29314.9  Rx         0521  6  00 0F 00 00 03 0A 
   802)     29335.1  Rx         0521  6  00 00 00 00 03 1B 
   803)     29355.5  Rx         0521  6  00 01 00 00 02 F8 
   804)     29355.8  Rx         0522  6  01 0B 00 01 BE 91 
   805)     29356.0  Rx         0523  6  02 0B 00 01 BE 90 
   806)     29356.2  Rx         0524  6  03 0B 00 00 00 0C 
   807)     29375.2  Rx         0521  6  00 02 00 00 03 13 
   808)     29392.1  Rx         0506  8  08 65 40 01 0E 00 00 00 
   809)     29395.2  Rx         0521  6  00 03 00 00 02 FC 
   810)     29395.8  Rx         0729  1  05 
   811)     29415.8  Rx         0521  6  00 04 00 00 03 04 
   812)     29416.0  Rx         0522  6  01 0C 00 01 BE 7B 
   813)     29416.2  Rx         0523  6  02 0C 00 01 BE 8A 
   814)     29416.5  Rx         0524  6  03 0C FF FF FF FC 
   815)     29435.4  Rx         0521  6  00 05 00 00 02 F3 
   816)     29455.5  Rx         0521  6  00 06 00 00 03 11 
   817)     29476.0  Rx         0521  6  00 07 00 00 03 03 
   818)     29476.2  Rx         0522  6  01 0D 00 01 BE 89 
   819)     29476.4  Rx         0523  6  02 0D 00 01 BE 8C 
   820)     29476.7  Rx         0524  6  03 0D 00 00 00 12 
   821)     29495.6  Rx         0521  6  00 08 00 00 03 0A 
   822)     29496.3  Rx         0729  1  05 
   823)     29512.6  Rx         0506  8  08 65 40 01 0E 00 00 00 
   824)     29515.7  Rx         0521  6  00 09 00 00 03 1A 
   825)     29536.3  Rx         0521  6  00 0A 00 00 03 0E 
   826)     29536.5  Rx         0522  6  01 0E 00 01 BE 89 
   827)     29536.7  Rx         0523  6  02 0E 00 01 BE 8A 
   828)     29536.9  Rx         0524  6  03 0E 00 00 00 0C 
   829)     29555.8  Rx         0521  6  00 0B 00 00 03 00 
   830)     29576.0  Rx         0521  6  00 0C 00 00 03 0F 
   831)     29596.5  Rx         0521  6  00 0D 00 00 03 08 
   832)     29596.7  Rx         0522  6  01 0F 00 01 BE 6B 
   833)     29596.9  Rx         0729  1  05 
   834)     29597.1  Rx         0523  6  02 0F 00 01 BE 78 
   835)     29597.3  Rx         0524  6  03 0F FF FF FF F0 
   836)     29616.1  Rx         0521  6  00 0E 00 00 03 22 
   837)     29633.1  Rx         0506  8  08 65 40 01 0E 00 00 00 
   838)     29636.2  Rx         0521  6  00 0F 00 00 03 20 
   839)     29656.8  Rx         0521  6  00 00 00 00 03 0F 
   840)     29657.0  Rx         0522  6  01 00 00 01 BE 89 
   841)     29657.2  Rx         0523  6  02 00 00 01 BE 98 
   842)     29657.4  Rx         0524  6  03 00 00 00 00 10 
   843)     29676.4  Rx         0521  6  00 01 00 00 03 2B 
   844)     29696.4  Rx         0521  6  00 02 00 00 03 11 
   845)     29697.2  Rx         0729  1  05 
   846)     29717.0  Rx         0521  6  00 03 00 00 02 FD 
   847)     29717.2  Rx         0522  6  01 01 00 01 BE 81 
   848)     29717.4  Rx         0523  6  02 01 00 01 BE 70 
   849)     29717.7  Rx         0524  6  03 01 00 00 00 04 
   850)     29736.7  Rx         0521  6  00 04 00 00 03 15 
   851)     29753.7  Rx         0506  8  08 65 40 01 0E 00 00 00 
   852)     29756.7  Rx         0521  6  00 05 00 00 03 1A 
   853)     29777.2  Rx         0521  6  00 06 00 00 03 0F 
   854)     29777.5  Rx         0522  6  01 02 00 01 BE 77 
   855)     29777.7  Rx         0523  6  02 02 00 01 BE 8E 
   856)     29777.9  Rx         0524  6  03 02 00 00 00 0E 
   857)     29796.8  Rx         0521  6  00 07 00 00 03 1B 
   858)     29797.5  Rx         0729  1  05 
   859)     29816.9  Rx         0521  6  00 08 00 00 03 1D 
   860)     29837.5  Rx         0521  6  00 09 00 00 03 0C 
   861)     29837.7  Rx         0522  6  01 03 00 01 BE 91 
   862)     29837.9  Rx         0523  6  02 03 00 01 BE 88 
   863)     29838.2  Rx         0524  6  03 03 FF FF FF EC 
   864)     29857.1  Rx         0521  6  00 0A 00 00 03 10 
   865)     29874.1  Rx         0506  8  08 65 40 01 0E 00 00 00 
   866)     29877.2  Rx         0521  6  00 0B 00 00 03 16 
   867)     29897.7  Rx         0521  6  00 0C 00 00 03 0F 
   868)     29897.9  Rx         0522  6  01 04 00 01 BE 8D 
   869)     29898.1  Rx         0729  1  05 
   870)     29898.3  Rx         0523  6  02 04 00 01 BE 76 
   871)     29898.5  Rx         0524  6  03 04 00 00 00 02 
   872)     29917.3  Rx         0521  6  00 0D 00 00 03 1B 
   873)     29937.4  Rx         0521  6  00 0E 00 00 03 08 
   874)     29958.0  Rx         0521  6  00 0F 00 00 03 18 
   875)     29958.2  Rx         0522  6  01 05 00 01 BE 8D 
   876)     29958.5  Rx         0523  6  02 05 00 01 BE 98 
   877)     29958.7  Rx         0524  6  03 05 FF FF FF F6 
   878)     29977.6  Rx         0521  6  00 00 00 00 03 1A 
   879)     29994.6  Rx         0506  8  08 65 40 01 0E 00 00 00 
   880)     29997.7  Rx         0521  6  00 01 00 00 03 20 
   881)     29998.4  Rx         0729  1  05 
   882)     30018.2  Rx         0521  6  00 02 00 00 03 23 
   883)     30018.5  Rx         0522  6  01 06 00 01 BE 8F 
   884)     30018.7  Rx         0523  6  02 06 00 01 BE 96 
   885)     30018.9  Rx         0524  6  03 06 00 00 00 1C 
   886)     30037.9  Rx         0521  6  00 03 00 00 03 25 
   887)     30058.0  Rx         0521  6  00 04 00 00 03 18 
   888)     30078.5  Rx         0521  6  00 05 00 00 03 26 
   889)     30078.7  Rx         0522  6  01 07 00 01 BE 83 
   890)     30078.9  Rx         0523  6  02 07 00 01 BE 82 
   891)     30079.2  Rx         0524  6  03 07 00 00 00 1E 
   892)     30098.1  Rx         0521  6  00 06 00 00 03 20 
   893)     30098.8  Rx         0729  1  05 
   894)     30115.1  Rx         0506  8  08 65 40 01 0E 00 00 00 
   895)     30118.2  Rx         0521  6  00 07 00 00 03 1B 
   896)     30138.7  Rx         0521  6  00 08 00 00 03 23 
   897)     30138.9  Rx         0522  6  01 08 00 01 BE 87 
   898)     30139.2  Rx         0523  6  02 08 00 01 BE 9C 
   899)     30139.4  Rx         0524  6  03 08 00 00 00 06 
   900)     30158.4  Rx         0521  6  00 09 00 00 03 1C 
   901)     30178.5  Rx         0521  6  00 0A 00 00 03 20 
   902)     30199.0  Rx         0521  6  00 0B 00 00 03 20 
   903)     30199.2  Rx         0522  6  01 09 00 01 BE 99 
   904)     30199.3  Rx         0729  1  05 
   905)     30199.5  Rx         0523  6  02 09 00 01 BE 82 
   906)     30199.7  Rx         0524  6  03 09 00 00 00 0A 
   907)     30218.6  Rx         0521  6  00 0C 00 00 03 22 
   908)     30235.6  Rx         0506  8  08 65 40 01 0E 00 00 00 
   909)     30238.7  Rx         0521  6  00 0D 00 00 03 20 
   910)     30259.2  Rx         0521  6  00 0E 00 00 03 1B 
   911)     30259.4  Rx         0522  6  01 0A 00 01 BE 77 
   912)     30259.6  Rx         0523  6  02 0A 00 01 BE 8A 
   913)     30259.9  Rx         0524  6  03 0A 00 00 00 0E 
   914)     30278.8  Rx         0521  6  00 0F 00 00 03 1C 
   915)     30299.0  Rx         0521  6  00 00 00 00 03 36 
   916)     30299.6  Rx         0729  1  05 
   917)     30319.5  Rx         0521  6  00 01 00 00 03 0D 
   918)     30319.7  Rx         0522  6  01 0B 00 01 BE 83 
   919)     30319.9  Rx         0523  6  02 0B 00 01 BE 7E 
   920)     30320.1  Rx         0524  6  03 0B 00 00 00 02 
   921)     30339.1  Rx         0521  6  00 02 00 00 03 29 
   922)     30356.2  Rx         0506  8  08 65 40 01 0E 00 00 00 
   923)     30359.1  Rx         0521  6  00 03 00 00 03 24 
   924)     30379.7  Rx         0521  6  00 04 00 00 03 1B 
   925)     30379.9  Rx         0522  6  01 0C 00 01 BE 87 
   926)     30380.1  Rx         0523  6  02 0C 00 01 BE 7C 
   927)     30380.3  Rx         0524  6  03 0C FF FF FF FC 
   928)     30399.3  Rx         0521  6  00 05 00 00 03 1C 
   929)     30400.1  Rx         0729  1  05 
   930)     30419.5  Rx         0521  6  00 06 00 00 03 2B 
   931)     30440.0  Rx         0521  6  00 07 00 00 03 28 
   932)     30440.2  Rx         0522  6  01 0D 00 01 BE 87 
   933)     30440.4  Rx         0523  6  02 0D 00 01 BE 72 
   934)     30440.6  Rx         0524  6  03 0D 00 00 00 02 
   935)     30459.5  Rx         0521  6  00 08 00 00 03 16 
   936)     30476.6  Rx         0506  8  08 65 40 01 0E 00 00 00 
   937)     30479.7  Rx         0521  6  00 09 00 00 03 19 
   938)     30500.2  Rx         0521  6  00 0A 00 00 03 18 
   939)     30500.4  Rx         0522  6  01 0E 00 01 BE 85 
   940)     30500.5  Rx         0729  1  05 
   941)     30500.7  Rx         0523  6  02 0E 00 01 BE 8C 
   942)     30501.0  Rx         0524  6  03 0E 00 00 00 10 
   943)     30519.8  Rx         0521  6  00 0B 00 00 03 2E 
   944)     30539.9  Rx         0521  6  00 0C 00 00 03 30 
   945)     30560.4  Rx         0521  6  00 0D 00 00 03 2D 
   946)     30560.7  Rx         0522  6  01 0F 00 01 BE 89 
   947)     30560.9  Rx         0523  6  02 0F 00 01 BE 7A 
   948)     30561.1  Rx         0524  6  03 0F 00 00 00 0C 
   949)     30580.0  Rx         0521  6  00 0E 00 00 03 31 
   950)     30597.2  Rx         0506  8  08 65 40 01 0E 00 00 00 
   951)     30600.1  Rx         0521  6  00 0F 00 00 03 1F 
   952)     30600.9  Rx         0729  1  05 
   953)     30620.7  Rx         0521  6  00 00 00 00 03 23 
   954)     30620.9  Rx         0522  6  01 00 00 01 BE 97 
   955)     30621.1  Rx         0523  6  02 00 00 01 BE 86 
   956)     30621.3  Rx         0524  6  03 00 FF FF FF FC 
   957)     30640.4  Rx         0521  6  00 01 00 00 03 12 
   958)     30660.4  Rx         0521  6  00 02 00 00 03 22 
   959)     30680.9  Rx         0521  6  00 03 00 00 03 27 
   960)     30681.1  Rx         0522  6  01 01 00 01 BE 91 
   961)     30681.4  Rx         0523  6  02 01 00 01 BE 82 
   962)     30681.6  Rx         0524  6  03 01 00 00 00 08 
   963)     30700.5  Rx         0521  6  00 04 00 00 03 07 
   964)     30701.4  Rx         0729  1  05 
   965)     30717.7  Rx         0506  8  08 65 40 01 0E 00 00 00 
   966)     30720.6  Rx         0521  6  00 05 00 00 03 2F 
   967)     30741.2  Rx         0521  6  00 06 00 00 03 17 
   968)     30741.4  Rx         0522  6  01 02 00 01 BE 9F 
   969)     30741.6  Rx         0523  6  02 02 00 01 BE 7C 
   970)     30741.8  Rx         0524  6  03 02 00 00 00 1A 
   971)     30760.8  Rx         0521  6  00 07 00 00 03 18 
   972)     30780.9  Rx         0521  6  00 08 00 00 03 14 
   973)     30801.4  Rx         0521  6  00 09 00 00 03 16 
   974)     30801.6  Rx         0522  6  01 03 00 01 BE 8B 
   975)     30801.8  Rx         0523  6  02 03 00 01 BE 6C 
   976)     30802.0  Rx         0729  1  05 
   977)     30802.2  Rx         0524  6  03 03 FF FF FF FE 
   978)     30821.0  Rx         0521  6  00 0A 00 00 03 1E 
   979)     30838.2  Rx         0506  8  08 65 40 01 0E 00 00 00 
   980)     30841.1  Rx         0521  6  00 0B 00 00 03 18 
   981)     30861.7  Rx         0521  6  00 0C 00 00 03 30 
   982)     30861.9  Rx         0522  6  01 04 00 01 BE 93 
   983)     30862.1  Rx         0523  6  02 04 00 01 BE 74 
   984)     30862.3  Rx         0524  6  03 04 00 00 00 0E 
   985)     30881.3  Rx         0521  6  00 0D 00 00 03 1F 
   986)     30901.3  Rx         0521  6  00 0E 00 00 03 1C 
   987)     30902.3  Rx         0729  1  05 
   988)     30921.9  Rx         0521  6  00 0F 00 00 03 20 
   989)     30922.2  Rx         0522  6  01 05 00 01 BE A1 
   990)     30922.4  Rx         0523  6  02 05 00 01 BE 8A 
   991)     30922.6  Rx         0524  6  03 05 00 00 00 04 
   992)     30941.6  Rx         0521  6  00 00 00 00 03 23 
   993)     30958.8  Rx         0506  8  08 65 40 01 0E 00 00 00 
   994)     30961.7  Rx         0521  6  00 01 00 00 03 20 
   995)     30982.2  Rx         0521  6  00 02 00 00 03 0F 
   996)     30982.4  Rx         0522  6  01 06 00 01 BE 89 
   997)     30982.6  Rx         0523  6  02 06 00 01 BE 74 
   998)     30982.8  Rx         0524  6  03 06 00 00 00 02 
   999)     31001.9  Rx         0521  6  00 03 00 00 03 26 
  1000)     31002.7  Rx         0729  1  05 
  1001)     31021.9  Rx         0521  6  00 04 00 00 03 16 
  1002)     31042.4  Rx         0521  6  00 05 00 00 03 22 
  1003)     31042.6  Rx         0522  6  01 07 00 01 BE 93 
  1004)     31042.9  Rx         0523  6  02 07 00 01 BE 7C 
  1005)     31043.1  Rx         0524  6  03 07 FF FF FF F2 
  1006)     31062.0  Rx         0521  6  00 06 00 00 03 22 
  1007)     31079.3  Rx         0506  8  08 65 40 01 0E 00 00 00 
  1008)     31082.1  Rx         0521  6  00 07 00 00 03 2D 
  1009)     31102.7  Rx         0521  6  00 08 00 00 03 1A 
  1010)     31102.9  Rx         0522  6  01 08 00 01 BE 8D 
  1011)     31103.1  Rx         0523  6  02 08 00 01 BE 7A 
  1012)     31103.2  Rx         0729  1  05 
  1013)     31103.4  Rx         0524  6  03 08 FF FF FF EC 
  1014)     31122.3  Rx         0521  6  00 09 00 00 03 20 
  1015)     31142.3  Rx         0521  6  00 0A 00 00 03 0F 
  1016)     31162.9  Rx         0521  6  00 0B 00 00 03 3C 
  1017)     31163.1  Rx         0522  6  01 09 00 01 BE 95 
  1018)     31163.3  Rx         0523  6  02 09 00 01 BE 80 
  1019)     31163.6  Rx         0524  6  03 09 00 00 00 0C 
  1020)     31182.5  Rx         0521  6  00 0C 00 00 03 29 
  1021)     31199.7  Rx         0506  8  08 65 40 01 0E 00 00 00 
  1022)     31202.6  Rx         0521  6  00 0D 00 00 03 25 
  1023)     31203.5  Rx         0729  1  05 
  1024)     31223.2  Rx         0521  6  00 0E 00 00 03 26 
  1025)     31223.4  Rx         0522  6  01 0A 00 01 BE 93 
  1026)     31223.6  Rx         0523  6  02 0A 00 01 BE 8E 
  1027)     31223.8  Rx         0524  6  03 0A 00 00 00 14 
  1028)     31242.7  Rx         0521  6  00 0F 00 00 03 30 
  1029)     31262.8  Rx         0521  6  00 00 00 00 03 33 
  1030)     31283.4  Rx         0521  6  00 01 00 00 03 22 
  1031)     31283.6  Rx         0522  6  01 0B 00 01 BE 8B 
  1032)     31283.8  Rx         0523  6  02 0B 00 01 BE 8A 
  1033)     31284.0  Rx         0524  6  03 0B 00 00 00 0A 
  1034)     31303.0  Rx         0521  6  00 02 00 00 03 36 
  1035)     31303.9  Rx         0729  1  05 
  1036)     31320.3  Rx         0506  8  08 65 40 01 0E 00 00 00 
  1037)     31323.0  Rx         0521  6  00 03 00 00 03 35 
  1038)     31343.6  Rx         0521  6  00 04 00 00 03 2B 
  1039)     31343.8  Rx         0522  6  01 0C 00 01 BE 93 
  1040)     31344.1  Rx         0523  6  02 0C 00 01 BE 8C 
  1041)     31344.3  Rx         0524  6  03 0C 00 00 00 0C 
  1042)     31363.2  Rx         0521  6  00 05 00 00 03 33 
  1043)     31383.3  Rx         0521  6  00 06 00 00 03 22 
  1044)     31403.8  Rx         0521  6  00 07 00 00 03 32 
  1045)     31404.1  Rx         0522  6  01 0D 00 01 BE 73 
  1046)     31404.3  Rx         0523  6  02 0D 00 01 BE 7C 
  1047)     31404.4  Rx         0729  1  05 
  1048)     31404.6  Rx         0524  6  03 0D 00 00 00 0C 
  1049)     31423.5  Rx         0521  6  00 08 00 00 03 2B 
  1050)     31440.8  Rx         0506  8  08 65 40 01 0E 00 00 00 
  1051)     31443.6  Rx         0521  6  00 09 00 00 03 36 
  1052)     31464.1  Rx         0521  6  00 0A 00 00 03 2C 
  1053)     31464.3  Rx         0522  6  01 0E 00 01 BE 93 
  1054)     31464.5  Rx         0523  6  02 0E 00 01 BE 7A 
  1055)     31464.8  Rx         0524  6  03 0E 00 00 00 10 
  1056)     31483.7  Rx         0521  6  00 0B 00 00 03 27 
  1057)     31503.8  Rx         0521  6  00 0C 00 00 03 2B 
  1058)     31504.8  Rx         0729  1  05 
  1059)     31524.3  Rx         0521  6  00 0D 00 00 03 3C 
  1060)     31524.6  Rx         0522  6  01 0F 00 01 BE 99 
  1061)     31524.8  Rx         0523  6  02 0F 00 01 BE 98 
  1062)     31525.0  Rx         0524  6  03 0F 00 00 00 1E 
  1063)     31543.9  Rx         0521  6  00 0E 00 00 03 3B 
  1064)     31561.2  Rx         0506  8  08 65 40 01 0E 00 00 00 
  1065)     31564.0  Rx         0521  6  00 0F 00 00 03 1F 
  1066)     31584.6  Rx         0521  6  00 00 00 00 03 1C 
  1067)     31584.8  Rx         0522  6  01 00 00 01 BE 97 
  1068)     31585.1  Rx         0523  6  02 00 00 01 BE 7E 
  1069)     31585.3  Rx         0524  6  03 00 FF FF FF FC 
  1070)     31604.2  Rx         0521  6  00 01 00 00 03 19 
  1071)     31605.3  Rx         0729  1  05 
  1072)     31624.3  Rx         0521  6  00 02 00 00 03 23 
  1073)     31644.8  Rx         0521  6  00 03 00 00 03 23 
  1074)     31645.0  Rx         0522  6  01 01 00 01 BE 89 
  1075)     31645.3  Rx         0523  6  02 01 00 01 BE 8C 
  1076)     31645.5  Rx         0524  6  03 01 00 00 00 10 
  1077)     31664.5  Rx         0521  6  00 04 00 00 03 26 
  1078)     31681.8  Rx         0506  8  08 65 40 01 0E 00 00 00 
  1079)     31684.5  Rx         0521  6  00 05 00 00 03 29 
  1080)     31705.1  Rx         0521  6  00 06 00 00 03 39 
  1081)     31705.3  Rx         0522  6  01 02 00 01 BE 8F 
  1082)     31705.5  Rx         0523  6  02 02 00 01 BE 96 
  1083)     31705.6  Rx         0729  1  05 
  1084)     31705.8  Rx         0524  6  03 02 00 00 00 16 
  1085)     31724.7  Rx         0521  6  00 07 00 00 03 3A 
  1086)     31744.8  Rx         0521  6  00 08 00 00 03 1B 
  1087)     31765.3  Rx         0521  6  00 09 00 00 03 19 
  1088)     31765.5  Rx         0522  6  01 03 00 01 BE 8F 
  1089)     31765.7  Rx         0523  6  02 03 00 01 BE 74 
  1090)     31766.0  Rx         0524  6  03 03 00 00 00 08 
  1091)     31784.9  Rx         0521  6  00 0A 00 00 03 2A 
  1092)     31802.3  Rx         0506  8  08 65 40 01 0E 00 00 00 
  1093)     31805.1  Rx         0521  6  00 0B 00 00 03 29 
  1094)     31806.0  Rx         0729  1  05 
  1095)     31825.6  Rx         0521  6  00 0C 00 00 03 1D 
  1096)     31825.8  Rx         0522  6  01 04 00 01 BE 8F 
  1097)     31826.0  Rx         0523  6  02 04 00 01 BE 74 
  1098)     31826.2  Rx         0524  6  03 04 00 00 00 0E 
  1099)     31845.2  Rx         0521  6  00 0D 00 00 03 2C 
  1100)     31865.2  Rx         0521  6  00 0E 00 00 03 20 
  1101)     31885.8  Rx         0521  6  00 0F 00 00 03 23 
  1102)     31886.0  Rx         0522  6  01 05 00 01 BE 89 
  1103)     31886.2  Rx         0523  6  02 05 00 01 BE 92 
  1104)     31886.4  Rx         0524  6  03 05 00 00 00 0E 
  1105)     31905.4  Rx         0521  6  00 00 00 00 03 36 
  1106)     31906.5  Rx         0729  1  05 
  1107)     31922.8  Rx         0506  8  08 65 40 01 0E 00 00 00 
  1108)     31925.5  Rx         0521  6  00 01 00 00 03 1A 
  1109)     31946.1  Rx         0521  6  00 02 00 00 03 2F 
  1110)     31946.3  Rx         0522  6  01 06 00 01 BE 8F 
  1111)     31946.5  Rx         0523  6  02 06 00 01 BE 8C 
  1112)     31946.7  Rx         0524  6  03 06 00 00 00 1A 
  1113)     31965.7  Rx         0521  6  00 03 00 00 03 27 
  1114)     31985.8  Rx         0521  6  00 04 00 00 03 32 
  1115)     32006.3  Rx         0521  6  00 05 00 00 03 16 
  1116)     32006.5  Rx         0522  6  01 07 00 01 BE 8D 
  1117)     32006.8  Rx         0523  6  02 07 00 01 BE 78 
  1118)     32007.0  Rx         0524  6  03 07 FF FF FF FC 
  1119)     32007.1  Rx         0729  1  05 
  1120)     32026.0  Rx         0521  6  00 06 00 00 03 20 
  1121)     32043.4  Rx         0506  8  08 65 40 01 0E 00 00 00 
  1122)     32046.0  Rx         0521  6  00 07 00 00 03 13 
  1123)     32066.6  Rx         0521  6  00 08 00 00 03 16 
  1124)     32066.8  Rx         0522  6  01 08 00 01 BE 83 
  1125)     32067.0  Rx         0523  6  02 08 00 01 BE 84 
  1126)     32067.2  Rx         0524  6  03 08 FF FF FF F8 
  1127)     32086.2  Rx         0521  6  00 09 00 00 03 28 
  1128)     32106.2  Rx         0521  6  00 0A 00 00 03 2E 
  1129)     32107.4  Rx         0729  1  05 
  1130)     32126.8  Rx         0521  6  00 0B 00 00 03 32 
  1131)     32127.0  Rx         0522  6  01 09 00 01 BE 97 
  1132)     32127.2  Rx         0523  6  02 09 00 01 BE 86 
  1133)     32127.5  Rx         0524  6  03 09 FF FF FF FA 
  1134)     32146.5  Rx         0521  6  00 0C 00 00 03 2F 
  1135)     32163.9  Rx         0506  8  08 65 40 01 0E 00 00 00 
  1136)     32166.5  Rx         0521  6  00 0D 00 00 03 2E 
  1137)     32187.1  Rx         0521  6  00 0E 00 00 03 3E 
  1138)     32187.3  Rx         0522  6  01 0A 00 01 BE 89 
  1139)     32187.5  Rx         0523  6  02 0A 00 01 BE 88 
  1140)     32187.7  Rx         0524  6  03 0A 00 00 00 06 
  1141)     32206.7  Rx         0521  6  00 0F 00 00 03 3F 
  1142)     32207.8  Rx         0729  1  05 
  1143)     32226.7  Rx         0521  6  00 00 00 00 03 29 
  1144)     32247.3  Rx         0521  6  00 01 00 00 03 3E 
  1145)     32247.5  Rx         0522  6  01 0B 00 01 BE 93 
  1146)     32247.7  Rx         0523  6  02 0B 00 01 BE 74 
  1147)     32247.9  Rx         0524  6  03 0B 00 00 00 12 
  1148)     32266.8  Rx         0521  6  00 02 00 00 03 27 
  1149)     32284.5  Rx         0506  8  08 65 40 01 0E 00 00 00 
  1150)     32287.0  Rx         0521  6  00 03 00 00 03 2F 
  1151)     32307.5  Rx         0521  6  00 04 00 00 03 33 
  1152)     32307.7  Rx         0522  6  01 0C 00 01 BE 93 
  1153)     32308.0  Rx         0523  6  02 0C 00 01 BE 84 
  1154)     32308.2  Rx         0524  6  03 0C FF FF FF EA 
  1155)     32308.3  Rx         0729  1  05 
  1156)     32327.1  Rx         0521  6  00 05 00 00 03 39 
  1157)     32347.2  Rx         0521  6  00 06 00 00 03 2F 
  1158)     32367.7  Rx         0521  6  00 07 00 00 03 27 
  1159)     32368.0  Rx         0522  6  01 0D 00 01 BE 83 
  1160)     32368.2  Rx         0523  6  02 0D 00 01 BE 82 
  1161)     32368.4  Rx         0524  6  03 0D FF FF FF FA 
  1162)     32387.3  Rx         0521  6  00 08 00 00 03 20 
  1163)     32404.9  Rx         0506  8  08 65 40 01 0E 00 00 00 
  1164)     32407.5  Rx         0521  6  00 09 00 00 03 4F 
  1165)     32408.7  Rx         0729  1  05 
  1166)     32428.0  Rx         0521  6  00 0A 00 00 03 2A 
  1167)     32428.2  Rx         0522  6  01 0E 00 01 BE 9D 
  1168)     32428.4  Rx         0523  6  02 0E 00 01 BE A0 
  1169)     32428.6  Rx         0524  6  03 0E 00 00 00 0C 
  1170)     32447.6  Rx         0521  6  00 0B 00 00 03 4B 
  1171)     32467.7  Rx         0521  6  00 0C 00 00 03 36 
  1172)     32488.2  Rx         0521  6  00 0D 00 00 03 39 
  1173)     32488.5  Rx         0522  6  01 0F 00 01 BE 93 
  1174)     32488.7  Rx         0523  6  02 0F 00 01 BE 80 
  1175)     32488.9  Rx         0524  6  03 0F FF FF FF FA 
  1176)     32507.8  Rx         0521  6  00 0E 00 00 03 2D 
  1177)     32509.0  Rx         0729  1  05 
  1178)     32525.4  Rx         0506  8  08 65 40 01 0E 00 00 00 
  1179)     32528.0  Rx         0521  6  00 0F 00 00 03 42 
  1180)     32548.5  Rx         0521  6  00 00 00 00 03 39 
  1181)     32548.7  Rx         0522  6  01 00 00 01 BE 91 
  1182)     32548.9  Rx         0523  6  02 00 00 01 BE 86 
  1183)     32549.2  Rx         0524  6  03 00 FF FF FF F0 
  1184)     32568.1  Rx         0521  6  00 01 00 00 03 31 
  1185)     32588.2  Rx         0521  6  00 02 00 00 03 30 
  1186)     32608.7  Rx         0521  6  00 03 00 00 03 30 
  1187)     32608.9  Rx         0522  6  01 01 00 01 BE 7D 
  1188)     32609.2  Rx         0523  6  02 01 00 01 BE 80 
  1189)     32609.4  Rx         0524  6  03 01 00 00 00 02 
  1190)     32609.5  Rx         0729  1  05 
  1191)     32628.4  Rx         0521  6  00 04 00 00 03 3F 
  1192)     32645.9  Rx         0506  8  08 65 40 01 0E 00 00 00 
  1193)     32648.4  Rx         0521  6  00 05 00 00 03 26 
  1194)     32669.0  Rx         0521  6  00 06 00 00 03 23 
  1195)     32669.2  Rx         0522  6  01 02 00 01 BE 83 
  1196)     32669.4  Rx         0523  6  02 02 00 01 BE 86 
  1197)     32669.6  Rx         0524  6  03 02 00 00 00 06 
  1198)     32688.6  Rx         0521  6  00 07 00 00 03 3E 
  1199)     32708.6  Rx         0521  6  00 08 00 00 03 27 
  1200)     32709.9  Rx         0729  1  05 
  1201)     32729.2  Rx         0521  6  00 09 00 00 03 2F 
  1202)     32729.4  Rx         0522  6  01 03 00 01 BE 83 
  1203)     32729.6  Rx         0523  6  02 03 00 01 BE 7A 
  1204)     32729.9  Rx         0524  6  03 03 FF FF FF F8 
  1205)     32748.9  Rx         0521  6  00 0A 00 00 03 21 
  1206)     32766.4  Rx         0506  8  08 65 40 01 0E 00 00 00 
  1207)     32768.9  Rx         0521  6  00 0B 00 00 03 1C 
  1208)     32789.6  Rx         0521  6  00 0C 00 00 03 38 
  1209)     32789.8  Rx         0522  6  01 04 00 01 BE 85 
  1210)     32790.0  Rx         0523  6  02 04 00 01 BE 88 
  1211)     32790.2  Rx         0524  6  03 04 00 00 00 10 
  1212)     32809.0  Rx         0521  6  00 0D 00 00 03 31 
  1213)     32810.4  Rx         0729  1  05 
  1214)     32829.1  Rx         0521  6  00 0E 00 00 03 4A 
  1215)     32849.7  Rx         0521  6  00 0F 00 00 03 3A 
  1216)     32849.9  Rx         0522  6  01 05 00 01 BE 91 
  1217)     32850.1  Rx         0523  6  02 05 00 01 BE 7A 
  1218)     32850.3  Rx         0524  6  03 05 00 00 00 00 
  1219)     32869.3  Rx         0521  6  00 00 00 00 03 40 
  1220)     32886.9  Rx         0506  8  08 65 40 01 0E 00 00 00 
  1221)     32889.3  Rx         0521  6  00 01 00 00 03 2E 
  1222)     32909.9  Rx         0521  6  00 02 00 00 03 24 
  1223)     32910.1  Rx         0522  6  01 06 00 01 BE 75 
  1224)     32910.4  Rx         0523  6  02 06 00 01 BE 8E 
  1225)     32910.6  Rx         0524  6  03 06 00 00 00 02 
  1226)     32910.7  Rx         0729  1  05 
  1227)     32929.5  Rx         0521  6  00 03 00 00 03 47 
  1228)     32949.5  Rx         0521  6  00 04 00 00 03 26 
  1229)     32970.1  Rx         0521  6  00 05 00 00 03 4A 
  1230)     32970.3  Rx         0522  6  01 07 00 01 BE 7D 
  1231)     32970.5  Rx         0523  6  02 07 00 01 BE 8E 
  1232)     32970.8  Rx         0524  6  03 07 FF FF FF EA 
  1233)     32989.7  Rx         0521  6  00 06 00 00 03 34 
  1234)     33007.3  Rx         0506  8  08 65 40 01 0E 00 00 00 
  1235)     33009.8  Rx         0521  6  00 07 00 00 03 1E 
  1236)     33011.2  Rx         0729  1  05 
  1237)     33030.3  Rx         0521  6  00 08 00 00 03 37 
  1238)     33030.6  Rx         0522  6  01 08 00 01 BE 89 
  1239)     33030.8  Rx         0523  6  02 08 00 01 BE 80 
  1240)     33031.0  Rx         0524  6  03 08 00 00 00 00 
  1241)     33049.9  Rx         0521  6  00 09 00 00 03 3A 
  1242)     33070.0  Rx         0521  6  00 0A 00 00 03 2C 
  1243)     33090.6  Rx         0521  6  00 0B 00 00 03 51 
  1244)     33090.8  Rx         0522  6  01 09 00 01 BE 79 
  1245)     33091.0  Rx         0523  6  02 09 00 01 BE 90 
  1246)     33091.2  Rx         0524  6  03 09 00 00 00 04 
  1247)     33110.2  Rx         0521  6  00 0C 00 00 03 42 
  1248)     33111.5  Rx         0729  1  05 
  1249)     33127.9  Rx         0506  8  08 65 40 01 0E 00 00 00 
  1250)     33130.2  Rx         0521  6  00 0D 00 00 03 38 
  1251)     33150.8  Rx         0521  6  00 0E 00 00 03 26 
  1252)     33151.0  Rx         0522  6  01 0A 00 01 BE 87 
  1253)     33151.2  Rx         0523  6  02 0A 00 01 BE 8A 
  1254)     33151.5  Rx         0524  6  03 0A 00 00 00 18 
  1255)     33170.5  Rx         0521  6  00 0F 00 00 03 2D 
  1256)     33190.6  Rx         0521  6  00 00 00 00 03 2D 
  1257)     33211.1  Rx         0521  6  00 01 00 00 03 3C 
  1258)     33211.3  Rx         0522  6  01 0B 00 01 BE 7B 
  1259)     33211.5  Rx         0523  6  02 0B 00 01 BE 9C 
  1260)     33211.7  Rx         0524  6  03 0B FF FF FF FC 
  1261)     33212.0  Rx         0729  1  05 
  1262)     33230.6  Rx         0521  6  00 02 00 00 03 36 
  1263)     33248.3  Rx         0506  8  08 65 40 01 0E 00 00 00 
  1264)     33250.7  Rx         0521  6  00 03 00 00 03 34 
  1265)     33271.3  Rx         0521  6  00 04 00 00 03 3E 
  1266)     33271.5  Rx         0522  6  01 0C 00 01 BE 9B 
  1267)     33271.7  Rx         0523  6  02 0C 00 01 BE 80 
  1268)     33271.9  Rx         0524  6  03 0C 00 00 00 06 
  1269)     33290.9  Rx         0521  6  00 05 00 00 03 2B 
  1270)     33311.0  Rx         0521  6  00 06 00 00 03 30 
  1271)     33312.3  Rx         0729  1  05 
  1272)     33331.5  Rx         0521  6  00 07 00 00 03 30 
  1273)     33331.8  Rx         0522  6  01 0D 00 01 BE 87 
  1274)     33332.0  Rx         0523  6  02 0D 00 01 BE 84 
  1275)     33332.2  Rx         0524  6  03 0D FF FF FF F6 
  1276)     33351.2  Rx         0521  6  00 08 00 00 03 38 
  1277)     33368.9  Rx         0506  8  08 65 40 01 0E 00 00 00 
  1278)     33371.3  Rx         0521  6  00 09 00 00 03 36 
  1279)     33391.8  Rx         0521  6  00 0A 00 00 03 11 
  1280)     33392.0  Rx         0522  6  01 0E 00 01 BE 79 
  1281)     33392.2  Rx         0523  6  02 0E 00 01 BE 7C 
  1282)     33392.4  Rx         0524  6  03 0E 00 00 00 02 
  1283)     33411.4  Rx         0521  6  00 0B 00 00 03 35 
  1284)     33412.8  Rx         0729  1  05 
  1285)     33431.6  Rx         0521  6  00 0C 00 00 03 19 
  1286)     33452.0  Rx         0521  6  00 0D 00 00 03 3F 
  1287)     33452.2  Rx         0522  6  01 0F 00 01 BE 77 
  1288)     33452.5  Rx         0523  6  02 0F 00 01 BE 8A 
  1289)     33452.7  Rx         0524  6  03 0F 00 00 00 08 
  1290)     33471.7  Rx         0521  6  00 0E 00 00 03 41 
  1291)     33489.5  Rx         0506  8  08 65 40 01 0E 00 00 00 
  1292)     33491.7  Rx         0521  6  00 0F 00 00 03 2C 
  1293)     33512.3  Rx         0521  6  00 00 00 00 03 29 
  1294)     33512.5  Rx         0522  6  01 00 00 01 BE 87 
  1295)     33512.7  Rx         0523  6  02 00 00 01 BE 7C 
  1296)     33513.0  Rx         0524  6  03 00 00 00 00 16 
  1297)     33513.3  Rx         0729  1  05 
  1298)     33531.9  Rx         0521  6  00 01 00 00 03 23 
  1299)     33552.0  Rx         0521  6  00 02 00 00 03 3F 
  1300)     33572.5  Rx         0521  6  00 03 00 00 03 3F 
  1301)     33572.7  Rx         0522  6  01 01 00 01 BE 9F 
  1302)     33572.9  Rx         0523  6  02 01 00 01 BE 78 
  1303)     33573.2  Rx         0524  6  03 01 FF FF FF EA 
  1304)     33592.1  Rx         0521  6  00 04 00 00 03 1F 
  1305)     33609.9  Rx         0506  8  08 65 40 01 0E 00 00 00 
  1306)     33612.2  Rx         0521  6  00 05 00 00 03 34 
  1307)     33613.7  Rx         0729  1  05 
  1308)     33632.8  Rx         0521  6  00 06 00 00 03 2B 
  1309)     33633.0  Rx         0522  6  01 02 00 01 BE 93 
  1310)     33633.2  Rx         0523  6  02 02 00 01 BE 98 
  1311)     33633.4  Rx         0524  6  03 02 FF FF FF F6 
  1312)     33652.4  Rx         0521  6  00 07 00 00 03 38 
  1313)     33672.5  Rx         0521  6  00 08 00 00 03 29 
  1314)     33693.0  Rx         0521  6  00 09 00 00 03 4A 
  1315)     33693.2  Rx         0522  6  01 03 00 01 BE 8D 
  1316)     33693.4  Rx         0523  6  02 03 00 01 BE 86 
  1317)     33693.7  Rx         0524  6  03 03 FF FF FF F6 
  1318)     33712.6  Rx         0521  6  00 0A 00 00 03 28 
  1319)     33714.1  Rx         0729  1  05 
  1320)     33730.5  Rx         0506  8  08 65 40 01 0E 00 00 00 
  1321)     33732.6  Rx         0521  6  00 0B 00 00 03 25 
  1322)     33753.3  Rx         0521  6  00 0C 00 00 03 32 
  1323)     33753.5  Rx         0522  6  01 04 00 01 BE 75 
  1324)     33753.7  Rx         0523  6  02 04 00 01 BE 88 
  1325)     33753.9  Rx         0524  6  03 04 00 00 00 12 
  1326)     33772.9  Rx         0521  6  00 0D 00 00 03 30 
  1327)     33792.9  Rx         0521  6  00 0E 00 00 03 24 
  1328)     33813.5  Rx         0521  6  00 0F 00 00 03 2C 
  1329)     33813.7  Rx         0522  6  01 05 00 01 BE 77 
  1330)     33813.9  Rx         0523  6  02 05 00 01 BE 8C 
  1331)     33814.1  Rx         0524  6  03 05 FF FF FF F0 
  1332)     33814.5  Rx         0729  1  05 
  1333)     33833.1  Rx         0521  6  00 00 00 00 03 41 
  1334)     33850.9  Rx         0506  8  08 65 40 01 0E 00 00 00 
  1335)     33853.1  Rx         0521  6  00 01 00 00 03 30 
  1336)     33873.7  Rx         0521  6  00 02 00 00 03 2F 
  1337)     33873.9  Rx         0522  6  01 06 00 01 BE 85 
  1338)     33874.2  Rx         0523  6  02 06 00 01 BE 7E 
  1339)     33874.4  Rx         0524  6  03 06 FF FF FF F8 
  1340)     33893.3  Rx         0521  6  00 03 00 00 03 2F 
  1341)     33913.5  Rx         0521  6  00 04 00 00 03 23 
  1342)     33914.9  Rx         0729  1  05 
  1343)     33933.9  Rx         0521  6  00 05 00 00 03 3E 
  1344)     33934.1  Rx         0522  6  01 07 00 01 BE 8D 
  1345)     33934.4  Rx         0523  6  02 07 00 01 BE 82 
  1346)     33934.6  Rx         0524  6  03 07 00 00 00 08 
  1347)     33953.5  Rx         0521  6  00 06 00 00 03 30 
  1348)     33971.4  Rx         0506  8  08 65 40 01 0E 00 00 00 
  1349)     33973.7  Rx         0521  6  00 07 00 00 03 39 
  1350)     33994.2  Rx         0521  6  00 08 00 00 03 30 
  1351)     33994.4  Rx         0522  6  01 08 00 01 BE 95 
  1352)     33994.6  Rx         0523  6  02 08 00 01 BE 7C 
  1353)     33994.9  Rx         0524  6  03 08 00 00 00 04 
  1354)     34013.8  Rx         0521  6  00 09 00 00 03 3B 
  1355)     34015.4  Rx         0729  1  05 
  1356)     34033.9  Rx         0521  6  00 0A 00 00 03 1F 
  1357)     34054.4  Rx         0521  6  00 0B 00 00 03 20 
  1358)     34054.6  Rx         0522  6  01 09 00 01 BE 97 
  1359)     34054.8  Rx         0523  6  02 09 00 01 BE 7E 
  1360)     34055.1  Rx         0524  6  03 09 FF FF FF FA 
  1361)     34074.1  Rx         0521  6  00 0C 00 00 03 45 
  1362)     34091.9  Rx         0506  8  08 65 40 01 0E 00 00 00 
  1363)     34094.1  Rx         0521  6  00 0D 00 00 03 2B 
  1364)     34114.7  Rx         0521  6  00 0E 00 00 03 30 
  1365)     34114.9  Rx         0522  6  01 0A 00 01 BE 8F 
  1366)     34115.1  Rx         0523  6  02 0A 00 01 BE 86 
  1367)     34115.3  Rx         0524  6  03 0A FF FF FF F2 
  1368)     34115.7  Rx         0729  1  05 
  1369)     34134.3  Rx         0521  6  00 0F 00 00 03 36 
  1370)     34154.4  Rx         0521  6  00 00 00 00 03 32 
  1371)     34174.9  Rx         0521  6  00 01 00 00 03 21 
  1372)     34175.1  Rx         0522  6  01 0B 00 01 BE 83 
  1373)     34175.3  Rx         0523  6  02 0B 00 01 BE 68 
  1374)     34175.6  Rx         0524  6  03 0B 00 00 00 12 
  1375)     34194.5  Rx         0521  6  00 02 00 00 03 10 
  1376)     34212.4  Rx         0506  8  08 65 40 01 0E 00 00 00 
  1377)     34214.6  Rx         0521  6  00 03 00 00 03 2D 
  1378)     34216.3  Rx         0729  1  05 
  1379)     34235.2  Rx         0521  6  00 04 00 00 03 42 
  1380)     34235.4  Rx         0522  6  01 0C 00 01 BE 89 
  1381)     34235.6  Rx         0523  6  02 0C 00 01 BE 80 
  1382)     34235.8  Rx         0524  6  03 0C 00 00 00 0C 
  1383)     34254.8  Rx         0521  6  00 05 00 00 03 33 
  1384)     34274.8  Rx         0521  6  00 06 00 00 03 2C 
  1385)     34295.4  Rx         0521  6  00 07 00 00 03 23 
  1386)     34295.6  Rx         0522  6  01 0D 00 01 BE A3 
  1387)     34295.8  Rx         0523  6  02 0D 00 01 BE 8A 
  1388)     34296.0  Rx         0524  6  03 0D 00 00 00 12 
  1389)     34315.0  Rx         0521  6  00 08 00 00 03 38 
  1390)     34316.6  Rx         0729  1  05 
  1391)     34332.9  Rx         0506  8  08 65 40 01 0E 00 00 00 
  1392)     34335.1  Rx         0521  6  00 09 00 00 03 3B 
  1393)     34355.6  Rx         0521  6  00 0A 00 00 03 31 
  1394)     34355.9  Rx         0522  6  01 0E 00 01 BE 7D 
  1395)     34356.1  Rx         0523  6  02 0E 00 01 BE 8A 
  1396)     34356.3  Rx         0524  6  03 0E 00 00 00 04 
  1397)     34375.3  Rx         0521  6  00 0B 00 00 03 1E 
  1398)     34395.3  Rx         0521  6  00 0C 00 00 03 20 
  1399)     34415.9  Rx         0521  6  00 0D 00 00 03 23 
  1400)     34416.1  Rx         0522  6  01 0F 00 01 BE 8F 
  1401)     34416.3  Rx         0523  6  02 0F 00 01 BE 90 
  1402)     34416.5  Rx         0524  6  03 0F FF FF FF EE 
  1403)     34417.1  Rx         0729  1  05 
  1404)     34435.5  Rx         0521  6  00 0E 00 00 03 2D 
  1405)     34453.4  Rx         0506  8  08 65 40 01 0E 00 00 00 
  1406)     34455.5  Rx         0521  6  00 0F 00 00 03 36 
  1407)     34476.1  Rx         0521  6  00 00 00 00 03 26 
  1408)     34476.3  Rx         0522  6  01 00 00 01 BE 89 
  1409)     34476.6  Rx         0523  6  02 00 00 01 BE 94 
  1410)     34476.8  Rx         0524  6  03 00 00 00 00 16 
  1411)     34495.7  Rx         0521  6  00 01 00 00 03 3A 
  1412)     34515.8  Rx         0521  6  00 02 00 00 03 32 
  1413)     34517.4  Rx         0729  1  05 
  1414)     34536.3  Rx         0521  6  00 03 00 00 03 35 
  1415)     34536.6  Rx         0522  6  01 01 00 01 BE 95 
  1416)     34536.8  Rx         0523  6  02 01 00 01 BE 86 
  1417)     34537.0  Rx         0524  6  03 01 FF FF FF FC 
  1418)     34555.9  Rx         0521  6  00 04 00 00 03 1C 
  1419)     34574.0  Rx         0506  8  08 65 40 01 0E 00 00 00 
  1420)     34576.1  Rx         0521  6  00 05 00 00 03 40 
  1421)     34596.6  Rx         0521  6  00 06 00 00 03 35 
  1422)     34596.8  Rx         0522  6  01 02 00 01 BE A1 
  1423)     34597.0  Rx         0523  6  02 02 00 01 BE 96 
  1424)     34597.2  Rx         0524  6  03 02 00 00 00 1A 
  1425)     34616.2  Rx         0521  6  00 07 00 00 03 35 
  1426)     34617.9  Rx         0729  1  05 
  1427)     34636.3  Rx         0521  6  00 08 00 00 03 45 
  1428)     34656.8  Rx         0521  6  00 09 00 00 03 2C 
  1429)     34657.0  Rx         0522  6  01 03 00 01 BE 9F 
  1430)     34657.3  Rx         0523  6  02 03 00 01 BE 6E 
  1431)     34657.5  Rx         0524  6  03 03 00 00 00 10 
  1432)     34676.4  Rx         0521  6  00 0A 00 00 03 2E 
  1433)     34694.5  Rx         0506  8  08 65 40 01 0E 00 00 00 
  1434)     34696.6  Rx         0521  6  00 0B 00 00 03 30 
  1435)     34717.1  Rx         0521  6  00 0C 00 00 03 38 
  1436)     34717.3  Rx         0522  6  01 04 00 01 BE 81 
  1437)     34717.5  Rx         0523  6  02 04 00 01 BE AC 
  1438)     34717.8  Rx         0524  6  03 04 00 00 00 0A 
  1439)     34718.3  Rx         0729  1  05 
  1440)     34736.7  Rx         0521  6  00 0D 00 00 03 3F 
  1441)     34756.7  Rx         0521  6  00 0E 00 00 03 30 
  1442)     34777.3  Rx         0521  6  00 0F 00 00 03 3E 
  1443)     34777.5  Rx         0522  6  01 05 00 01 BE 91 
  1444)     34777.7  Rx         0523  6  02 05 00 01 BE 7A 
  1445)     34778.0  Rx         0524  6  03 05 00 00 00 00 
  1446)     34797.0  Rx         0521  6  00 00 00 00 03 34 
  1447)     34815.0  Rx         0506  8  08 65 40 01 0E 00 00 00 
  1448)     34817.0  Rx         0521  6  00 01 00 00 03 2D 
  1449)     34818.7  Rx         0729  1  05 
  1450)     34837.6  Rx         0521  6  00 02 00 00 03 2F 
  1451)     34837.8  Rx         0522  6  01 06 00 01 BE 83 
  1452)     34838.0  Rx         0523  6  02 06 00 01 BE 96 
  1453)     34838.2  Rx         0524  6  03 06 00 00 00 02 
  1454)     34857.2  Rx         0521  6  00 03 00 00 03 2D 
  1455)     34877.2  Rx         0521  6  00 04 00 00 03 2D 
  1456)     34897.8  Rx         0521  6  00 05 00 00 03 36 
  1457)     34898.0  Rx         0522  6  01 07 00 01 BE 9B 
  1458)     34898.2  Rx         0523  6  02 07 00 01 BE 98 
  1459)     34898.4  Rx         0524  6  03 07 00 00 00 04 
  1460)     34917.5  Rx         0521  6  00 06 00 00 03 40 
  1461)     34919.2  Rx         0729  1  05 
  1462)     34935.5  Rx         0506  8  08 65 40 01 0E 00 00 00 
  1463)     34937.5  Rx         0521  6  00 07 00 00 03 16 
  1464)     34958.0  Rx         0521  6  00 08 00 00 03 1B 
  1465)     34958.2  Rx         0522  6  01 08 00 01 BE 8D 
  1466)     34958.5  Rx         0523  6  02 08 00 01 BE 88 
  1467)     34958.7  Rx         0524  6  03 08 00 00 00 24 
  1468)     34977.7  Rx         0521  6  00 09 00 00 03 3D 
  1469)     34997.7  Rx         0521  6  00 0A 00 00 03 37 
  1470)     35018.3  Rx         0521  6  00 0B 00 00 03 37 
  1471)     35018.5  Rx         0522  6  01 09 00 01 BE 7F 
  1472)     35018.7  Rx         0523  6  02 09 00 01 BE 82 
  1473)     35019.0  Rx         0524  6  03 09 00 00 00 12 
  1474)     35019.6  Rx         0729  1  05 
  1475)     35037.9  Rx         0521  6  00 0C 00 00 03 30 
  1476)     35056.1  Rx         0506  8  08 65 40 01 0E 00 00 00 
  1477)     35058.0  Rx         0521  6  00 0D 00 00 03 39 
  1478)     35078.5  Rx         0521  6  00 0E 00 00 03 23 
  1479)     35078.7  Rx         0522  6  01 0A 00 01 BE 99 
  1480)     35078.9  Rx         0523  6  02 0A 00 01 BE 78 
  1481)     35079.2  Rx         0524  6  03 0A 00 00 00 0E 
  1482)     35098.1  Rx         0521  6  00 0F 00 00 03 3F 
  1483)     35118.2  Rx         0521  6  00 00 00 00 03 31 
  1484)     35120.1  Rx         0729  1  05 
  1485)     35138.8  Rx         0521  6  00 01 00 00 03 32 
  1486)     35139.0  Rx         0522  6  01 0B 00 01 BE 8D 
  1487)     35139.2  Rx         0523  6  02 0B 00 01 BE 82 
  1488)     35139.4  Rx         0524  6  03 0B 00 00 00 20 
  1489)     35158.4  Rx         0521  6  00 02 00 00 03 35 
  1490)     35176.5  Rx         0506  8  08 65 40 01 0E 00 00 00 
  1491)     35178.5  Rx         0521  6  00 03 00 00 03 2F 
  1492)     35199.0  Rx         0521  6  00 04 00 00 03 31 
  1493)     35199.2  Rx         0522  6  01 0C 00 01 BE 7F 
  1494)     35199.4  Rx         0523  6  02 0C 00 01 BE 82 
  1495)     35199.7  Rx         0524  6  03 0C 00 00 00 14 
  1496)     35218.7  Rx         0521  6  00 05 00 00 03 2D 
  1497)     35220.5  Rx         0729  1  05 
  1498)     35238.7  Rx         0521  6  00 06 00 00 03 39 
  1499)     35259.3  Rx         0521  6  00 07 00 00 03 40 
  1500)     35259.5  Rx         0522  6  01 0D 00 01 BE 87 
  1501)     35259.7  Rx         0523  6  02 0D 00 01 BE 7C 
  1502)     35259.9  Rx         0524  6  03 0D FF FF FF F2 
  1503)     35278.8  Rx         0521  6  00 08 00 00 03 4F 
  1504)     35297.1  Rx         0506  8  08 65 40 01 0E 00 00 00 
  1505)     35298.9  Rx         0521  6  00 09 00 00 03 4C 
  1506)     35319.5  Rx         0521  6  00 0A 00 00 03 2B 
  1507)     35319.7  Rx         0522  6  01 0E 00 01 BE 9B 
  1508)     35319.9  Rx         0523  6  02 0E 00 01 BE 6E 
  1509)     35320.1  Rx         0524  6  03 0E 00 00 00 0C 
  1510)     35320.9  Rx         0729  1  05 
  1511)     35339.1  Rx         0521  6  00 0B 00 00 03 40 
  1512)     35359.2  Rx         0521  6  00 0C 00 00 03 3B 
  1513)     35379.7  Rx         0521  6  00 0D 00 00 03 36 
  1514)     35380.0  Rx         0522  6  01 0F 00 01 BE 93 
  1515)     35380.2  Rx         0523  6  02 0F 00 01 BE 7C 
  1516)     35380.4  Rx         0524  6  03 0F FF FF FF FE 
  1517)     35399.3  Rx         0521  6  00 0E 00 00 03 32 
  1518)     35417.5  Rx         0506  8  08 65 40 01 0E 00 00 00 
  1519)     35419.4  Rx         0521  6  00 0F 00 00 03 4D 
  1520)     35421.3  Rx         0729  1  05 
  1521)     35439.9  Rx         0521  6  00 00 00 00 03 49 
  1522)     35440.2  Rx         0522  6  01 00 00 01 BE 8B 
  1523)     35440.4  Rx         0523  6  02 00 00 01 BE 6E 
  1524)     35440.6  Rx         0524  6  03 00 00 00 00 28 
  1525)     35459.6  Rx         0521  6  00 01 00 00 03 3A 
  1526)     35479.7  Rx         0521  6  00 02 00 00 03 38 
  1527)     35500.2  Rx         0521  6  00 03 00 00 03 3F 
  1528)     35500.4  Rx         0522  6  01 01 00 01 BE 7F 
  1529)     35500.6  Rx         0523  6  02 01 00 01 BE 78 
  1530)     35500.9  Rx         0524  6  03 01 00 00 00 0A 
  1531)     35519.8  Rx         0521  6  00 04 00 00 03 37 
  1532)     35521.7  Rx         0729  1  05 
  1533)     35538.1  Rx         0506  8  08 65 40 01 0E 00 00 00 
  1534)     35539.9  Rx         0521  6  00 05 00 00 03 2D 
  1535)     35560.4  Rx         0521  6  00 06 00 00 03 25 
  1536)     35560.6  Rx         0522  6  01 02 00 01 BE 91 
  1537)     35560.9  Rx         0523  6  02 02 00 01 BE 8A 
  1538)     35561.1  Rx         0524  6  03 02 00 00 00 06 
  1539)     35580.0  Rx         0521  6  00 07 00 00 03 4B 
  1540)     35600.2  Rx         0521  6  00 08 00 00 03 3A 
  1541)     35620.7  Rx         0521  6  00 09 00 00 03 2B 
  1542)     35620.9  Rx         0522  6  01 03 00 01 BE 79 
  1543)     35621.1  Rx         0523  6  02 03 00 01 BE 8C 
  1544)     35621.3  Rx         0524  6  03 03 00 00 00 00 
  1545)     35622.3  Rx         0729  1  05 
  1546)     35640.3  Rx         0521  6  00 0A 00 00 03 36 
  1547)     35658.6  Rx         0506  8  08 65 40 01 0E 00 00 00 
  1548)     35660.4  Rx         0521  6  00 0B 00 00 03 52 
  1549)     35680.9  Rx         0521  6  00 0C 00 00 03 38 
  1550)     35681.1  Rx         0522  6  01 04 00 01 BE 93 
  1551)     35681.4  Rx         0523  6  02 04 00 01 BE 88 
  1552)     35681.6  Rx         0524  6  03 04 00 00 00 08 
  1553)     35700.5  Rx         0521  6  00 0D 00 00 03 29 
  1554)     35720.6  Rx         0521  6  00 0E 00 00 03 4C 
  1555)     35722.6  Rx         0729  1  05 
  1556)     35741.2  Rx         0521  6  00 0F 00 00 03 3E 
  1557)     35741.4  Rx         0522  6  01 05 00 01 BE 8D 
  1558)     35741.6  Rx         0523  6  02 05 00 01 BE 9C 
  1559)     35741.8  Rx         0524  6  03 05 00 00 00 0E 
  1560)     35760.8  Rx         0521  6  00 00 00 00 03 47 
  1561)     35779.1  Rx         0506  8  08 65 40 01 0E 00 00 00 
  1562)     35780.9  Rx         0521  6  00 01 00 00 03 40 
  1563)     35801.4  Rx         0521  6  00 02 00 00 03 3E 
  1564)     35801.6  Rx         0522  6  01 06 00 01 BE 89 
  1565)     35801.8  Rx         0523  6  02 06 00 01 BE 78 
  1566)     35802.1  Rx         0524  6  03 06 00 00 00 0E 
  1567)     35821.0  Rx         0521  6  00 03 00 00 03 4D 
  1568)     35823.1  Rx         0729  1  05 
  1569)     35841.0  Rx         0521  6  00 04 00 00 03 28 
  1570)     35861.6  Rx         0521  6  00 05 00 00 03 38 
  1571)     35861.9  Rx         0522  6  01 07 00 01 BE 83 
  1572)     35862.1  Rx         0523  6  02 07 00 01 BE 8C 
  1573)     35862.3  Rx         0524  6  03 07 FF FF FF F0 
  1574)     35881.2  Rx         0521  6  00 06 00 00 03 53 
  1575)     35899.6  Rx         0506  8  08 65 40 01 0E 00 00 00 
  1576)     35901.4  Rx         0521  6  00 07 00 00 03 42 
  1577)     35921.9  Rx         0521  6  00 08 00 00 03 43 
  1578)     35922.1  Rx         0522  6  01 08 00 01 BE 8D 
  1579)     35922.3  Rx         0523  6  02 08 00 01 BE 92 
  1580)     35922.6  Rx         0524  6  03 08 00 00 00 14 
  1581)     35923.5  Rx         0729  1  05 
  1582)     35941.5  Rx         0521  6  00 09 00 00 03 48 
  1583)     35961.7  Rx         0521  6  00 0A 00 00 03 35 
  1584)     35982.1  Rx         0521  6  00 0B 00 00 03 36 
  1585)     35982.3  Rx         0522  6  01 09 00 01 BE 8D 
  1586)     35982.6  Rx         0523  6  02 09 00 01 BE 8E 
  1587)     35982.8  Rx         0524  6  03 09 FF FF FF F4 
  1588)     36001.7  Rx         0521  6  00 0C 00 00 03 39 
  1589)     36020.1  Rx         0506  8  08 65 40 01 0E 00 00 00 
  1590)     36021.8  Rx         0521  6  00 0D 00 00 03 3B 
  1591)     36023.9  Rx         0729  1  05 
  1592)     36042.4  Rx         0521  6  00 0E 00 00 03 33 
  1593)     36042.6  Rx         0522  6  01 0A 00 01 BE 8D 
  1594)     36042.8  Rx         0523  6  02 0A 00 01 BE 78 
  1595)     36043.0  Rx         0524  6  03 0A 00 00 00 02 
  1596)     36062.0  Rx         0521  6  00 0F 00 00 03 29 
  1597)     36082.1  Rx         0521  6  00 00 00 00 03 3C 
  1598)     36102.6  Rx         0521  6  00 01 00 00 03 38 
  1599)     36102.8  Rx         0522  6  01 0B 00 01 BE 83 
  1600)     36103.0  Rx         0523  6  02 0B 00 01 BE 7A 
  1601)     36103.3  Rx         0524  6  03 0B FF FF FF FC 
  1602)     36122.2  Rx         0521  6  00 02 00 00 03 49 
  1603)     36124.3  Rx         0729  1  05 
  1604)     36140.7  Rx         0506  8  08 65 40 01 0E 00 00 00 
  1605)     36142.3  Rx         0521  6  00 03 00 00 03 38 
  1606)     36162.9  Rx         0521  6  00 04 00 00 03 3B 
  1607)     36163.1  Rx         0522  6  01 0C 00 01 BE 9F 
  1608)     36163.3  Rx         0523  6  02 0C 00 01 BE 76 
  1609)     36163.5  Rx         0524  6  03 0C FF FF FF FE 
  1610)     36182.4  Rx         0521  6  00 05 00 00 03 2B 
  1611)     36202.6  Rx         0521  6  00 06 00 00 03 31 
  1612)     36223.1  Rx         0521  6  00 07 00 00 03 39 
  1613)     36223.3  Rx         0522  6  01 0D 00 01 BE 79 
  1614)     36223.5  Rx         0523  6  02 0D 00 01 BE 72 
  1615)     36223.8  Rx         0524  6  03 0D FF FF FF FE 
  1616)     36224.7  Rx         0729  1  05 
  1617)     36242.7  Rx         0521  6  00 08 00 00 03 4E 
  1618)     36261.2  Rx         0506  8  08 65 40 01 0E 00 00 00 
  1619)     36262.7  Rx         0521  6  00 09 00 00 03 4B 
  1620)     36283.3  Rx         0521  6  00 0A 00 00 03 51 
  1621)     36283.5  Rx         0522  6  01 0E 00 01 BE 95 
  1622)     36283.7  Rx         0523  6  02 0E 00 01 BE 80 
  1623)     36284.0  Rx         0524  6  03 0E 00 00 00 04 
  1624)     36302.9  Rx         0521  6  00 0B 00 00 03 3D 
  1625)     36323.0  Rx         0521  6  00 0C 00 00 03 37 
  1626)     36325.2  Rx         0729  1  05 
  1627)     36343.6  Rx         0521  6  00 0D 00 00 03 30 
  1628)     36343.8  Rx         0522  6  01 0F 00 01 BE 87 
  1629)     36344.0  Rx         0523  6  02 0F 00 01 BE 88 
  1630)     36344.2  Rx         0524  6  03 0F 00 00 00 08 
  1631)     36363.1  Rx         0521  6  00 0E 00 00 03 3C 
  1632)     36381.7  Rx         0506  8  08 65 40 01 0E 00 00 00 
  1633)     36383.3  Rx         0521  6  00 0F 00 00 03 4F 
  1634)     36403.8  Rx         0521  6  00 00 00 00 03 37 
  1635)     36404.0  Rx         0522  6  01 00 00 01 BE 89 
  1636)     36404.2  Rx         0523  6  02 00 00 01 BE 90 
  1637)     36404.4  Rx         0524  6  03 00 FF FF FF F2 
  1638)     36423.4  Rx         0521  6  00 01 00 00 03 2B 
  1639)     36425.6  Rx         0729  1  05 
  1640)     36443.5  Rx         0521  6  00 02 00 00 03 35 
  1641)     36464.0  Rx         0521  6  00 03 00 00 03 42 
  1642)     36464.3  Rx         0522  6  01 01 00 01 BE 93 
  1643)     36464.5  Rx         0523  6  02 01 00 01 BE 72 
  1644)     36464.7  Rx         0524  6  03 01 FF FF FF F6 
  1645)     36483.7  Rx         0521  6  00 04 00 00 03 4E 
  1646)     36502.2  Rx         0506  8  08 65 40 01 0E 00 00 00 
  1647)     36503.7  Rx         0521  6  00 05 00 00 03 2C 
  1648)     36524.3  Rx         0521  6  00 06 00 00 03 2E 
  1649)     36524.5  Rx         0522  6  01 02 00 01 BE 95 
  1650)     36524.7  Rx         0523  6  02 02 00 01 BE 8C 
  1651)     36524.9  Rx         0524  6  03 02 FF FF FF FE 
  1652)     36526.1  Rx         0729  1  05 
  1653)     36543.9  Rx         0521  6  00 07 00 00 03 34 
  1654)     36564.0  Rx         0521  6  00 08 00 00 03 46 
  1655)     36584.5  Rx         0521  6  00 09 00 00 03 3F 
  1656)     36584.7  Rx         0522  6  01 03 00 01 BE 8F 
  1657)     36585.0  Rx         0523  6  02 03 00 01 BE 80 
  1658)     36585.2  Rx         0524  6  03 03 FF FF FF F8 
  1659)     36604.2  Rx         0521  6  00 0A 00 00 03 3F 
  1660)     36622.7  Rx         0506  8  08 65 40 01 0E 00 00 00 
  1661)     36624.2  Rx         0521  6  00 0B 00 00 03 5B 
  1662)     36626.4  Rx         0729  1  05 
  1663)     36644.7  Rx         0521  6  00 0C 00 00 03 26 
  1664)     36645.0  Rx         0522  6  01 04 00 01 BE 81 
  1665)     36645.2  Rx         0523  6  02 04 00 01 BE 8E 
  1666)     36645.4  Rx         0524  6  03 04 00 00 00 14 
  1667)     36664.4  Rx         0521  6  00 0D 00 00 03 48 
  1668)     36684.5  Rx         0521  6  00 0E 00 00 03 41 
  1669)     36705.0  Rx         0521  6  00 0F 00 00 03 39 
  1670)     36705.2  Rx         0522  6  01 05 00 01 BE 8F 
  1671)     36705.4  Rx         0523  6  02 05 00 01 BE 86 
  1672)     36705.7  Rx         0524  6  03 05 00 00 00 0C 
  1673)     36724.6  Rx         0521  6  00 00 00 00 03 35 
  1674)     36726.9  Rx         0729  1  05 
  1675)     36743.2  Rx         0506  8  08 65 40 01 0E 00 00 00 
  1676)     36744.7  Rx         0521  6  00 01 00 00 03 3A 
  1677)     36765.3  Rx         0521  6  00 02 00 00 03 3E 
  1678)     36765.5  Rx         0522  6  01 06 00 01 BE 8D 
  1679)     36765.7  Rx         0523  6  02 06 00 01 BE 7A 
